date Tue Apr 15 14:13:4 2025
base hex  timestamps absolute
no internal events logged
// TOSUN libLog V2022.10.6.794
   19.978116 2  731       Rx   d 8 01 00 00 00 00 01 00 00 
   20.077708 2  731       Rx   d 8 01 00 00 00 00 01 00 00 
   20.177725 2  731       Rx   d 8 01 00 00 00 00 01 00 00 
   20.277723 2  731       Rx   d 8 01 00 00 00 00 01 00 00 
   20.377730 2  731       Rx   d 8 01 00 00 00 00 01 00 00 
   20.477719 2  731       Rx   d 8 01 00 00 00 00 01 00 00 
   20.577736 2  731       Rx   d 8 01 00 00 00 00 01 00 00 
   20.677735 2  731       Rx   d 8 01 00 00 00 00 01 00 00 
   20.725936 4  611       Rx   d 8 00 00 00 00 00 00 E8 03 
   20.777730 2  731       Rx   d 8 01 00 00 00 00 01 00 00 
   20.826790 4  611       Rx   d 8 00 00 00 00 00 00 E8 03 
   20.877731 2  731       Rx   d 8 01 00 00 00 00 01 00 00 
   20.927629 4  611       Rx   d 8 00 00 00 00 00 00 E8 03 
   20.977740 2  731       Rx   d 8 01 00 00 00 00 01 00 00 
   21.028939 4  611       Rx   d 8 00 00 00 00 00 00 E8 03 
   21.077737 2  731       Rx   d 8 01 00 00 00 00 01 00 00 
   21.129293 4  611       Rx   d 8 00 00 00 00 00 00 E8 03 
   21.177742 2  731       Rx   d 8 01 00 00 00 00 01 00 00 
   21.230113 4  611       Rx   d 8 A8 19 00 00 00 00 E8 03 
   21.277741 2  731       Rx   d 8 01 00 00 00 00 01 00 00 
   21.331148 4  611       Rx   d 8 A8 19 00 00 00 00 E8 03 
   21.377748 2  731       Rx   d 8 01 00 00 00 00 01 00 00 
   21.431759 4  611       Rx   d 8 A8 19 00 00 00 00 E8 03 
   21.477747 2  731       Rx   d 8 01 00 00 00 00 01 00 00 
   21.532578 4  611       Rx   d 8 A8 19 00 00 00 00 E8 03 
   21.577754 2  731       Rx   d 8 01 00 00 00 00 01 00 00 
   21.633396 4  611       Rx   d 8 A8 19 00 00 00 00 E8 03 
   21.677753 2  731       Rx   d 8 01 00 00 00 00 01 00 00 
   21.734205 4  611       Rx   d 8 A3 19 00 00 00 00 E8 03 
   21.777758 2  731       Rx   d 8 01 00 00 00 00 01 00 00 
   21.835007 4  611       Rx   d 8 A3 19 00 00 7C 02 E8 03 
   21.877759 2  731       Rx   d 8 01 00 00 00 00 01 00 00 
   21.935807 4  611       Rx   d 8 A3 19 00 00 7C 02 E8 03 
   21.977768 2  731       Rx   d 8 01 00 00 00 00 01 00 00 
   22.036602 4  611       Rx   d 8 A3 19 00 00 7C 02 E8 03 
   22.077765 2  731       Rx   d 8 01 00 00 00 00 01 00 00 
   22.137403 4  611       Rx   d 8 A3 19 00 00 7C 02 E8 03 
   22.177770 2  731       Rx   d 8 01 00 00 00 00 01 00 00 
   22.238206 4  611       Rx   d 8 A3 19 00 00 7C 02 E8 03 
   22.277769 2  731       Rx   d 8 01 00 00 00 00 01 00 00 
   22.339003 4  611       Rx   d 8 A3 19 00 00 7C 02 E8 03 
   22.377776 2  731       Rx   d 8 01 00 00 00 00 01 00 00 
   22.439805 4  611       Rx   d 8 A3 19 00 00 7C 02 E8 03 
   22.477775 2  731       Rx   d 8 01 00 00 00 00 01 00 00 
   22.541303 4  611       Rx   d 8 A3 19 00 00 7C 02 E8 03 
   22.577782 2  731       Rx   d 8 01 00 00 00 00 01 00 00 
   22.641454 4  611       Rx   d 8 A3 19 00 00 7C 02 E8 03 
   22.677781 2  731       Rx   d 8 01 00 00 00 00 01 00 00 
   22.742190 4  611       Rx   d 8 A3 19 00 00 7C 02 E8 03 
   22.777786 2  731       Rx   d 8 01 00 00 00 00 01 00 00 
   22.842982 4  611       Rx   d 8 A3 19 00 00 7C 02 E8 03 
   22.877787 2  731       Rx   d 8 01 00 00 00 00 01 00 00 
   22.943768 4  611       Rx   d 8 A3 19 00 00 7C 02 E8 03 
   22.977796 2  731       Rx   d 8 01 00 00 00 00 01 00 00 
   23.044560 4  611       Rx   d 8 A3 19 00 00 7C 02 E8 03 
   23.077793 2  731       Rx   d 8 01 00 00 00 00 01 00 00 
   23.145348 4  611       Rx   d 8 A3 19 00 00 7C 02 E8 03 
   23.177797 2  731       Rx   d 8 01 00 00 00 00 01 00 00 
   23.246134 4  611       Rx   d 8 A3 19 00 00 7C 02 E8 03 
   23.277796 2  731       Rx   d 8 01 00 00 00 00 01 00 00 
   23.346927 4  611       Rx   d 8 A3 19 00 00 7C 02 E8 03 
   23.377803 2  731       Rx   d 8 01 00 00 00 00 01 00 00 
   23.447718 4  611       Rx   d 8 A3 19 00 00 7C 02 E8 03 
   23.477802 2  731       Rx   d 8 01 00 00 00 00 01 00 00 
   23.548534 4  611       Rx   d 8 A3 19 00 00 7C 02 E8 03 
   23.577809 2  731       Rx   d 8 01 00 00 00 00 01 00 00 
   23.649488 4  611       Rx   d 8 A3 19 00 00 7C 02 E8 03 
   23.677808 2  731       Rx   d 8 01 00 00 00 00 01 00 00 
   23.750219 4  611       Rx   d 8 A3 19 00 00 7C 02 E8 03 
   23.777813 2  731       Rx   d 8 01 00 00 00 00 01 00 00 
   23.851087 4  611       Rx   d 8 A3 19 00 00 7C 02 E8 03 
   23.877814 2  731       Rx   d 8 01 00 00 00 00 01 00 00 
   23.951659 4  611       Rx   d 8 A3 19 00 00 7C 02 E8 03 
   23.977823 2  731       Rx   d 8 01 00 00 00 00 01 00 00 
   24.052532 4  611       Rx   d 8 A3 19 00 00 7C 02 E8 03 
   24.077820 2  731       Rx   d 8 01 00 00 00 00 01 00 00 
   24.154080 4  611       Rx   d 8 A3 19 00 00 7C 02 E8 03 
   24.177825 2  731       Rx   d 8 01 00 00 00 00 01 00 00 
   24.254075 4  611       Rx   d 8 A3 19 00 00 7C 02 E8 03 
   24.277824 2  731       Rx   d 8 01 00 00 00 00 01 00 00 
   24.354877 4  611       Rx   d 8 A3 19 00 00 7C 02 E8 03 
   24.377831 2  731       Rx   d 8 01 00 00 00 00 01 00 00 
   24.455532 4  611       Rx   d 8 A3 19 00 00 7C 02 E8 03 
   24.477830 2  731       Rx   d 8 01 00 00 00 00 01 00 00 
   24.556336 4  611       Rx   d 8 A3 19 00 00 7C 02 E8 03 
   24.577837 2  731       Rx   d 8 01 00 00 00 00 01 00 00 
   24.657049 4  611       Rx   d 8 A3 19 00 00 7C 02 E8 03 
   24.677836 2  731       Rx   d 8 01 00 00 00 00 01 00 00 
   24.757823 4  611       Rx   d 8 A3 19 00 00 7C 02 E8 03 
   24.777841 2  731       Rx   d 8 01 00 00 00 00 01 00 00 
   24.858864 4  611       Rx   d 8 A3 19 00 00 7C 02 E8 03 
   24.877842 2  731       Rx   d 8 01 00 00 00 00 01 00 00 
   24.959367 4  611       Rx   d 8 A3 19 00 00 7C 02 E8 03 
   24.977853 2  731       Rx   d 8 01 00 00 00 00 01 00 00 
   25.060145 4  611       Rx   d 8 A3 19 00 00 7C 02 E8 03 
   25.077848 2  731       Rx   d 8 01 00 00 00 00 01 00 00 
   25.160915 4  611       Rx   d 8 A3 19 00 00 7C 02 E8 03 
   25.177853 2  731       Rx   d 8 01 00 00 00 00 01 00 00 
   25.261692 4  611       Rx   d 8 A3 19 00 00 7C 02 E8 03 
   25.277852 2  731       Rx   d 8 01 00 00 00 00 01 00 00 
   25.362463 4  611       Rx   d 8 A3 19 00 00 7C 02 E8 03 
   25.377859 2  731       Rx   d 8 01 00 00 00 00 01 00 00 
   25.463234 4  611       Rx   d 8 A3 19 00 00 7C 02 E8 03 
   25.477857 2  731       Rx   d 8 01 00 00 00 00 01 00 00 
   25.563999 4  611       Rx   d 8 A3 19 00 00 7C 02 E8 03 
   25.577864 2  731       Rx   d 8 01 00 00 00 00 01 00 00 
   25.664768 4  611       Rx   d 8 A3 19 00 00 7C 02 E8 03 
   25.677863 2  731       Rx   d 8 01 00 00 00 00 01 00 00 
   25.766627 4  611       Rx   d 8 A3 19 00 00 7C 02 E8 03 
   25.777870 2  731       Rx   d 8 01 00 00 00 00 01 00 00 
   25.866743 4  611       Rx   d 8 A3 19 00 00 7C 02 E8 03 
   25.877869 2  731       Rx   d 8 01 00 00 00 00 01 00 00 
   25.967080 4  611       Rx   d 8 A3 19 00 00 7C 02 E8 03 
   25.977890 2  731       Rx   d 8 02 00 00 00 00 01 00 00 
   26.067830 4  611       Rx   d 8 A3 19 00 00 7C 02 E8 03 
   26.078003 2  731       Rx   d 8 02 00 00 00 00 01 00 00 
   26.168751 4  611       Rx   d 8 A3 19 00 00 7C 02 E8 03 
   26.178026 2  731       Rx   d 8 02 00 00 00 00 01 00 00 
   26.269351 4  611       Rx   d 8 A3 19 00 00 7C 02 E8 03 
   26.278010 2  731       Rx   d 8 02 00 00 00 00 01 00 00 
   26.370109 4  611       Rx   d 8 A3 19 00 00 7C 02 E8 03 
   26.378012 2  731       Rx   d 8 02 00 00 00 00 01 00 00 
   26.470865 4  611       Rx   d 8 A3 19 00 00 7C 02 E8 03 
   26.478016 2  731       Rx   d 8 02 00 00 00 00 01 00 00 
   26.571624 4  611       Rx   d 8 A3 19 00 00 7C 02 E8 03 
   26.578018 2  731       Rx   d 8 02 00 00 00 00 01 00 00 
   26.672378 4  611       Rx   d 8 A3 19 00 00 7C 02 E8 03 
   26.678025 2  731       Rx   d 8 02 00 00 00 00 01 00 00 
   26.773137 4  611       Rx   d 8 A3 19 00 00 7C 02 E8 03 
   26.778047 2  731       Rx   d 8 02 00 00 00 00 01 00 00 
   26.873895 4  611       Rx   d 8 A3 19 00 00 7C 02 E8 03 
   26.878031 2  731       Rx   d 8 02 00 00 00 00 01 00 00 
   26.974641 4  611       Rx   d 8 A3 19 00 00 7C 02 E8 03 
   26.978069 2  731       Rx   d 8 02 00 00 00 00 01 00 00 
   26.982165 5  543       Rx   d 8 AB 19 AC 0D 00 00 88 13 
   26.991673 5  543       Rx   d 8 AB 19 AC 0D 00 00 88 13 
   27.001030 5  543       Rx   d 8 AB 19 AC 0D 00 00 88 13 
   27.011032 5  543       Rx   d 8 AB 19 AC 0D 00 00 88 13 
   27.021030 5  543       Rx   d 8 AB 19 AC 0D 00 00 88 13 
   27.031029 5  543       Rx   d 8 AB 19 AC 0D 00 00 88 13 
   27.041029 5  543       Rx   d 8 AB 19 AC 0D 00 00 88 13 
   27.051030 5  543       Rx   d 8 AB 19 AC 0D 00 00 88 13 
   27.061031 5  543       Rx   d 8 AC 19 AC 0D 00 00 88 13 
   27.071029 5  543       Rx   d 8 AB 19 AC 0D 00 00 88 13 
   27.075396 4  611       Rx   d 8 A3 19 00 00 7C 02 E8 03 
   27.078039 2  731       Rx   d 8 02 00 00 00 00 01 00 00 
   27.081195 5  543       Rx   d 8 AB 19 AC 0D 00 00 88 13 
   27.091671 5  543       Rx   d 8 AB 19 AC 0D 00 00 88 13 
   27.101027 5  543       Rx   d 8 AB 19 AC 0D 00 00 88 13 
   27.111026 5  543       Rx   d 8 AB 19 AC 0D 00 00 88 13 
   27.121026 5  543       Rx   d 8 AB 19 AC 0D 00 00 88 13 
   27.131027 5  543       Rx   d 8 AB 19 AC 0D 00 00 88 13 
   27.141025 5  543       Rx   d 8 AB 19 AC 0D 00 00 88 13 
   27.151026 5  543       Rx   d 8 AB 19 AC 0D 00 00 88 13 
   27.161025 5  543       Rx   d 8 AB 19 AC 0D 00 00 88 13 
   27.171025 5  543       Rx   d 8 AB 19 AC 0D 00 00 88 13 
   27.176149 4  611       Rx   d 8 A3 19 00 00 7C 02 E8 03 
   27.178057 2  731       Rx   d 8 02 00 00 00 00 01 00 00 
   27.181201 5  543       Rx   d 8 AB 19 AC 0D 00 00 88 13 
   27.191665 5  543       Rx   d 8 AB 19 AC 0D 00 00 88 13 
   27.221060 5  543       Rx   d 8 AB 19 AC 0D 00 00 88 13 
   27.231039 5  543       Rx   d 8 AB 19 AC 0D 00 00 88 13 
   27.241039 5  543       Rx   d 8 AB 19 AC 0D 00 00 88 13 
   27.251040 5  543       Rx   d 8 AC 19 AC 0D 00 00 88 13 
   27.261039 5  543       Rx   d 8 AB 19 AC 0D 00 00 88 13 
   27.271039 5  543       Rx   d 8 AB 19 AC 0D 00 00 88 13 
   27.276901 4  611       Rx   d 8 A3 19 00 00 7C 02 E8 03 
   27.278047 2  731       Rx   d 8 02 00 00 00 00 01 00 00 
   27.281197 5  543       Rx   d 8 AC 19 AC 0D 00 00 88 13 
   27.291671 5  543       Rx   d 8 AC 19 AC 0D 00 00 88 13 
   27.301039 5  543       Rx   d 8 AC 19 AC 0D 00 00 88 13 
   27.311039 5  543       Rx   d 8 AC 19 AC 0D 00 00 88 13 
   27.321036 5  543       Rx   d 8 AB 19 AC 0D 00 00 88 13 
   27.331036 5  543       Rx   d 8 AB 19 AC 0D 00 00 88 13 
   27.341035 5  543       Rx   d 8 AB 19 AC 0D 00 00 88 13 
   27.351036 5  543       Rx   d 8 AB 19 AC 0D 00 00 88 13 
   27.361035 5  543       Rx   d 8 AB 19 AC 0D 00 00 88 13 
   27.371037 5  543       Rx   d 8 AC 19 AC 0D 00 00 88 13 
   27.377660 4  611       Rx   d 8 A3 19 00 00 7C 02 E8 03 
   27.378049 2  731       Rx   d 8 02 00 00 00 00 01 00 00 
   27.381211 5  543       Rx   d 8 AB 19 AC 0D 00 00 88 13 
   27.391665 5  543       Rx   d 8 AB 19 AC 0D 00 00 88 13 
   27.401033 5  543       Rx   d 8 AB 19 AC 0D 00 00 88 13 
   27.411033 5  543       Rx   d 8 AB 19 AC 0D 00 00 88 13 
   27.421032 5  543       Rx   d 8 AB 19 AC 0D 00 00 88 13 
   27.431032 5  543       Rx   d 8 AB 19 AC 0D 00 00 88 13 
   27.441032 5  543       Rx   d 8 AB 19 AC 0D 00 00 88 13 
   27.451031 5  543       Rx   d 8 AB 19 AC 0D 00 00 88 13 
   27.461030 5  543       Rx   d 8 AB 19 AC 0D 00 00 88 13 
   27.471030 5  543       Rx   d 8 AB 19 AC 0D 00 00 88 13 
   27.478054 2  731       Rx   d 8 02 00 00 00 00 01 00 00 
   27.479484 4  611       Rx   d 8 A3 19 00 00 7C 02 E8 03 
   27.481198 5  543       Rx   d 8 AB 19 AC 0D 00 00 88 13 
   27.491660 5  543       Rx   d 8 AB 19 AC 0D 00 00 88 13 
   27.501029 5  543       Rx   d 8 AB 19 AC 0D 00 00 88 13 
   27.511029 5  543       Rx   d 8 AB 19 AC 0D 00 00 88 13 
   27.521029 5  543       Rx   d 8 AB 19 AC 0D 00 00 88 13 
   27.531028 5  543       Rx   d 8 AB 19 AC 0D 00 00 88 13 
   27.541028 5  543       Rx   d 8 AB 19 AC 0D 00 00 88 13 
   27.551027 5  543       Rx   d 8 AB 19 AC 0D 00 00 88 13 
   27.561026 5  543       Rx   d 8 AB 19 AC 0D 00 00 88 13 
   27.571026 5  543       Rx   d 8 AB 19 AC 0D 00 00 88 13 
   27.578056 2  731       Rx   d 8 02 00 00 00 00 01 00 00 
   27.579737 4  611       Rx   d 8 A3 19 00 00 7C 02 E8 03 
   27.581213 5  543       Rx   d 8 AB 19 AC 0D 00 00 88 13 
   27.591656 5  543       Rx   d 8 AB 19 AC 0D 00 00 88 13 
   27.601025 5  543       Rx   d 8 AB 19 AC 0D 00 00 88 13 
   27.611025 5  543       Rx   d 8 AB 19 AC 0D 00 00 88 13 
   27.621024 5  543       Rx   d 8 AB 19 AC 0D 00 00 88 13 
   27.631026 5  543       Rx   d 8 AC 19 AC 0D 00 00 88 13 
   27.641023 5  543       Rx   d 8 AB 19 AC 0D 00 00 88 13 
   27.651024 5  543       Rx   d 8 AB 19 AC 0D 00 00 88 13 
   27.661023 5  543       Rx   d 8 AB 19 AC 0D 00 00 88 13 
   27.671023 5  543       Rx   d 8 AB 19 AC 0D 00 00 88 13 
   27.678062 2  731       Rx   d 8 02 00 00 00 00 01 00 00 
   27.680085 4  611       Rx   d 8 A3 19 00 00 7C 02 E8 03 
   27.681202 5  543       Rx   d 8 AB 19 AC 0D 00 00 88 13 
   27.691653 5  543       Rx   d 8 AB 19 AC 0D 00 00 88 13 
   27.701022 5  543       Rx   d 8 AB 19 AC 0D 00 00 88 13 
   27.711022 5  543       Rx   d 8 AB 19 AC 0D 00 00 88 13 
   27.721021 5  543       Rx   d 8 AB 19 AC 0D 00 00 88 13 
   27.731021 5  543       Rx   d 8 AB 19 AC 0D 00 00 88 13 
   27.741019 5  543       Rx   d 8 AB 19 AC 0D 00 00 88 13 
   27.751020 5  543       Rx   d 8 AB 19 AC 0D 00 00 88 13 
   27.761019 5  543       Rx   d 8 AB 19 AC 0D 00 00 88 13 
   27.771019 5  543       Rx   d 8 AB 19 AC 0D 00 00 88 13 
   27.778063 2  731       Rx   d 8 02 00 00 00 00 01 00 00 
   27.780709 4  611       Rx   d 8 A3 19 00 00 7C 02 E8 03 
   27.781203 5  543       Rx   d 8 AB 19 AC 0D 00 00 88 13 
   27.791651 5  543       Rx   d 8 AC 19 AC 0D 00 00 88 13 
   27.801018 5  543       Rx   d 8 AB 19 AC 0D 00 00 88 13 
   27.811018 5  543       Rx   d 8 AB 19 AC 0D 00 00 88 13 
   27.821016 5  543       Rx   d 8 AB 19 AC 0D 00 00 88 13 
   27.831017 5  543       Rx   d 8 AB 19 AC 0D 00 00 88 13 
   27.841015 5  543       Rx   d 8 AB 19 AC 0D 00 00 88 13 
   27.851016 5  543       Rx   d 8 AB 19 AC 0D 00 00 88 13 
   27.861015 5  543       Rx   d 8 AB 19 AC 0D 00 00 88 13 
   27.871015 5  543       Rx   d 8 AB 19 AC 0D 00 00 88 13 
   27.878069 2  731       Rx   d 8 02 00 00 00 00 01 00 00 
   27.881206 5  543       Rx   d 8 AB 19 AC 0D 00 00 88 13 
   27.881477 4  611       Rx   d 8 A3 19 00 00 7C 02 E8 03 
   27.891645 5  543       Rx   d 8 AB 19 AC 0D 00 00 88 13 
   27.901014 5  543       Rx   d 8 AB 19 AC 0D 00 00 88 13 
   27.911014 5  543       Rx   d 8 AB 19 AC 0D 00 00 88 13 
   27.921012 5  543       Rx   d 8 AB 19 AC 0D 00 00 88 13 
   27.931013 5  543       Rx   d 8 AB 19 AC 0D 00 00 88 13 
   27.941011 5  543       Rx   d 8 AB 19 AC 0D 00 00 88 13 
   27.951012 5  543       Rx   d 8 AB 19 AC 0D 00 00 88 13 
   27.961011 5  543       Rx   d 8 AB 19 AC 0D 00 00 88 13 
   27.971012 5  543       Rx   d 8 AB 19 AC 0D 00 00 88 13 
   27.978089 2  731       Rx   d 8 02 00 00 00 00 01 00 00 
   27.981228 5  543       Rx   d 8 AB 19 AC 0D 00 00 88 13 
   27.982204 4  611       Rx   d 8 A3 19 00 00 7C 02 E8 03 
   27.991641 5  543       Rx   d 8 AB 19 AC 0D 00 00 88 13 
   28.001011 5  543       Rx   d 8 AB 19 AC 0D 00 00 88 13 
   28.011010 5  543       Rx   d 8 AB 19 AC 0D 00 00 88 13 
   28.021008 5  543       Rx   d 8 AB 19 AC 0D 00 00 88 13 
   28.031008 5  543       Rx   d 8 AB 19 AC 0D 00 00 88 13 
   28.041009 5  543       Rx   d 8 AB 19 AC 0D 00 00 88 13 
   28.051010 5  543       Rx   d 8 AB 19 AC 0D 00 00 88 13 
   28.061008 5  543       Rx   d 8 AB 19 AC 0D 00 00 88 13 
   28.071006 5  543       Rx   d 8 AB 19 AC 0D 00 00 88 13 
   28.078077 2  731       Rx   d 8 02 00 00 00 00 01 00 00 
   28.081211 5  543       Rx   d 8 AB 19 AC 0D 00 00 88 13 
   28.082960 4  611       Rx   d 8 A3 19 00 00 7C 02 E8 03 
   28.091636 5  543       Rx   d 8 AB 19 AC 0D 00 00 88 13 
   28.101005 5  543       Rx   d 8 AB 19 AC 0D 00 00 88 13 
   28.111005 5  543       Rx   d 8 AB 19 AC 0D 00 00 88 13 
   28.121006 5  543       Rx   d 8 AB 19 AC 0D 00 00 88 13 
   28.131004 5  543       Rx   d 8 AB 19 AC 0D 00 00 88 13 
   28.141005 5  543       Rx   d 8 AB 19 AC 0D 00 00 88 13 
   28.151004 5  543       Rx   d 8 AB 19 AC 0D 00 00 88 13 
   28.161003 5  543       Rx   d 8 AB 19 AC 0D 00 00 88 13 
   28.171003 5  543       Rx   d 8 AB 19 AC 0D 00 00 88 13 
   28.178078 2  731       Rx   d 8 02 00 00 00 00 01 00 00 
   28.181224 5  543       Rx   d 8 AB 19 AC 0D 00 00 88 13 
   28.183718 4  611       Rx   d 8 A3 19 00 00 7C 02 E8 03 
   28.191634 5  543       Rx   d 8 AB 19 AC 0D 00 00 88 13 
   28.201002 5  543       Rx   d 8 AB 19 AC 0D 00 00 88 13 
   28.211003 5  543       Rx   d 8 AB 19 AC 0D 00 00 88 13 
   28.221001 5  543       Rx   d 8 AB 19 AC 0D 00 00 88 13 
   28.231004 5  543       Rx   d 8 AA 19 AC 0D 00 00 88 13 
   28.241000 5  543       Rx   d 8 AB 19 AC 0D 00 00 88 13 
   28.251001 5  543       Rx   d 8 AB 19 AC 0D 00 00 88 13 
   28.261002 5  543       Rx   d 8 AB 19 AC 0D 00 00 88 13 
   28.271000 5  543       Rx   d 8 AB 19 AC 0D 00 00 88 13 
   28.278084 2  731       Rx   d 8 02 00 00 00 00 01 00 00 
   28.281216 5  543       Rx   d 8 AB 19 AC 0D 00 00 88 13 
   28.284466 4  611       Rx   d 8 A3 19 00 00 7C 02 E8 03 
   28.290999 5  543       Rx   d 8 AB 19 AC 0D 00 00 88 13 
   28.300999 5  543       Rx   d 8 AB 19 AC 0D 00 00 88 13 
   28.310999 5  543       Rx   d 8 AB 19 AC 0D 00 00 88 13 
   28.320999 5  543       Rx   d 8 AB 19 AC 0D 00 00 88 13 
   28.330997 5  543       Rx   d 8 AB 19 AC 0D 00 00 88 13 
   28.340998 5  543       Rx   d 8 AB 19 AC 0D 00 00 88 13 
   28.350996 5  543       Rx   d 8 AB 19 AC 0D 00 00 88 13 
   28.360999 5  543       Rx   d 8 AC 19 AC 0D 00 00 88 13 
   28.370998 5  543       Rx   d 8 AC 19 AC 0D 00 00 88 13 
   28.378086 2  731       Rx   d 8 02 00 00 00 00 01 00 00 
   28.381222 5  543       Rx   d 8 AB 19 AC 0D 00 00 88 13 
   28.385214 4  611       Rx   d 8 A3 19 00 00 7C 02 E8 03 
   28.390997 5  543       Rx   d 8 AB 19 AC 0D 00 00 88 13 
   28.400996 5  543       Rx   d 8 AB 19 AC 0D 00 00 88 13 
   28.410995 5  543       Rx   d 8 AB 19 AC 0D 00 00 88 13 
   28.420995 5  543       Rx   d 8 AB 19 AC 0D 00 00 88 13 
   28.430995 5  543       Rx   d 8 AB 19 AC 0D 00 00 88 13 
   28.440994 5  543       Rx   d 8 AB 19 AC 0D 00 00 88 13 
   28.450993 5  543       Rx   d 8 AB 19 AC 0D 00 00 88 13 
   28.460994 5  543       Rx   d 8 AB 19 AC 0D 00 00 88 13 
   28.470994 5  543       Rx   d 8 AB 19 AC 0D 00 00 88 13 
   28.478090 2  731       Rx   d 8 02 00 00 00 00 01 00 00 
   28.481224 5  543       Rx   d 8 AB 19 AC 0D 00 00 88 13 
   28.485966 4  611       Rx   d 8 A3 19 00 00 7C 02 E8 03 
   28.490993 5  543       Rx   d 8 AB 19 AC 0D 00 00 88 13 
   28.500992 5  543       Rx   d 8 AB 19 AC 0D 00 00 88 13 
   28.510990 5  543       Rx   d 8 AB 19 AC 0D 00 00 88 13 
   28.520991 5  543       Rx   d 8 AB 19 AC 0D 00 00 88 13 
   28.530991 5  543       Rx   d 8 AB 19 AC 0D 00 00 88 13 
   28.540989 5  543       Rx   d 8 AB 19 AC 0D 00 00 88 13 
   28.550990 5  543       Rx   d 8 AB 19 AC 0D 00 00 88 13 
   28.560989 5  543       Rx   d 8 AB 19 AC 0D 00 00 88 13 
   28.570989 5  543       Rx   d 8 AB 19 AC 0D 00 00 88 13 
   28.578092 2  731       Rx   d 8 02 00 00 00 00 01 00 00 
   28.581229 5  543       Rx   d 8 AB 19 AC 0D 00 00 88 13 
   28.586714 4  611       Rx   d 8 A3 19 00 00 7C 02 E8 03 
   28.591619 5  543       Rx   d 8 AB 19 AC 0D 00 00 88 13 
   28.600988 5  543       Rx   d 8 AB 19 AC 0D 00 00 88 13 
   28.610988 5  543       Rx   d 8 AB 19 AC 0D 00 00 88 13 
   28.620987 5  543       Rx   d 8 AB 19 AC 0D 00 00 88 13 
   28.630987 5  543       Rx   d 8 AB 19 AC 0D 00 00 88 13 
   28.640986 5  543       Rx   d 8 AB 19 AC 0D 00 00 88 13 
   28.650988 5  543       Rx   d 8 AA 19 AC 0D 00 00 88 13 
   28.660985 5  543       Rx   d 8 AB 19 AC 0D 00 00 88 13 
   28.670987 5  543       Rx   d 8 AA 19 AC 0D 00 00 88 13 
   28.678099 2  731       Rx   d 8 02 00 00 00 00 01 00 00 
   28.681230 5  543       Rx   d 8 AA 19 AC 0D 00 00 88 13 
   28.687461 4  611       Rx   d 8 A3 19 00 00 7C 02 E8 03 
   28.690986 5  543       Rx   d 8 AA 19 AC 0D 00 00 88 13 
   28.700984 5  543       Rx   d 8 AB 19 AC 0D 00 00 88 13 
   28.710984 5  543       Rx   d 8 AB 19 AC 0D 00 00 88 13 
   28.720982 5  543       Rx   d 8 AB 19 AC 0D 00 00 88 13 
   28.730983 5  543       Rx   d 8 AB 19 AC 0D 00 00 88 13 
   28.740983 5  543       Rx   d 8 AB 19 AC 0D 00 00 88 13 
   28.750984 5  543       Rx   d 8 AC 19 AC 0D 00 00 88 13 
   28.760981 5  543       Rx   d 8 AB 19 AC 0D 00 00 88 13 
   28.770981 5  543       Rx   d 8 AB 19 AC 0D 00 00 88 13 
   28.778099 2  731       Rx   d 8 02 00 00 00 00 01 00 00 
   28.780993 5  543       Rx   d 8 AB 19 AC 0D 00 00 88 13 
   28.788205 4  611       Rx   d 8 A3 19 00 00 7C 02 E8 03 
   28.790980 5  543       Rx   d 8 AB 19 AC 0D 00 00 88 13 
   28.800980 5  543       Rx   d 8 AB 19 AC 0D 00 00 88 13 
   28.810980 5  543       Rx   d 8 AB 19 AC 0D 00 00 88 13 
   28.820979 5  543       Rx   d 8 AB 19 AC 0D 00 00 88 13 
   28.830979 5  543       Rx   d 8 AB 19 AC 0D 00 00 88 13 
   28.840977 5  543       Rx   d 8 AB 19 AC 0D 00 00 88 13 
   28.850978 5  543       Rx   d 8 AB 19 AC 0D 00 00 88 13 
   28.860977 5  543       Rx   d 8 AB 19 AC 0D 00 00 88 13 
   28.870977 5  543       Rx   d 8 AB 19 AC 0D 00 00 88 13 
   28.878105 2  731       Rx   d 8 02 00 00 00 00 01 00 00 
   28.880985 5  543       Rx   d 8 AB 19 AC 0D 00 00 88 13 
   28.889172 4  611       Rx   d 8 A3 19 00 00 7C 02 E8 03 
   28.891607 5  543       Rx   d 8 AB 19 AC 0D 00 00 88 13 
   28.900974 5  543       Rx   d 8 AB 19 AC 0D 00 00 88 13 
   28.910974 5  543       Rx   d 8 AB 19 AC 0D 00 00 88 13 
   28.920975 5  543       Rx   d 8 AB 19 AC 0D 00 00 88 13 
   28.930973 5  543       Rx   d 8 AB 19 AC 0D 00 00 88 13 
   28.940974 5  543       Rx   d 8 AB 19 AC 0D 00 00 88 13 
   28.950972 5  543       Rx   d 8 AB 19 AC 0D 00 00 88 13 
   28.960973 5  543       Rx   d 8 AB 19 AC 0D 00 00 88 13 
   28.970971 5  543       Rx   d 8 AB 19 AC 0D 00 00 88 13 
   28.978107 2  731       Rx   d 8 02 00 00 00 00 01 00 00 
   28.981010 5  543       Rx   d 8 AB 19 AC 0D 00 00 88 13 
   28.989700 4  611       Rx   d 8 A3 19 00 00 7C 02 E8 03 
   28.991601 5  543       Rx   d 8 AB 19 AC 0D 00 00 88 13 
   29.000971 5  543       Rx   d 8 AB 19 AC 0D 00 00 88 13 
   29.010970 5  543       Rx   d 8 AB 19 AC 0D 00 00 88 13 
   29.020970 5  543       Rx   d 8 AB 19 AC 0D 00 00 88 13 
   29.030971 5  543       Rx   d 8 AB 19 AC 0D 00 00 88 13 
   29.040969 5  543       Rx   d 8 AB 19 AC 0D 00 00 88 13 
   29.050970 5  543       Rx   d 8 AB 19 AC 0D 00 00 88 13 
   29.060969 5  543       Rx   d 8 AB 19 AC 0D 00 00 88 13 
   29.070969 5  543       Rx   d 8 AB 19 AC 0D 00 00 88 13 
   29.078114 2  731       Rx   d 8 02 00 00 00 00 01 00 00 
   29.080991 5  543       Rx   d 8 AB 19 AC 0D 00 00 88 13 
   29.090443 4  611       Rx   d 8 A3 19 00 00 7C 02 E8 03 
   29.091597 5  543       Rx   d 8 AB 19 AC 0D 00 00 88 13 
   29.100967 5  543       Rx   d 8 AB 19 AC 0D 00 00 88 13 
   29.110967 5  543       Rx   d 8 AB 19 AC 0D 00 00 88 13 
   29.120966 5  543       Rx   d 8 AB 19 AC 0D 00 00 88 13 
   29.130966 5  543       Rx   d 8 AB 19 AC 0D 00 00 88 13 
   29.140965 5  543       Rx   d 8 AB 19 AC 0D 00 00 88 13 
   29.150965 5  543       Rx   d 8 AB 19 AC 0D 00 00 88 13 
   29.160965 5  543       Rx   d 8 AB 19 AC 0D 00 00 88 13 
   29.170965 5  543       Rx   d 8 AB 19 AC 0D 00 00 88 13 
   29.178116 2  731       Rx   d 8 02 00 00 00 00 01 00 00 
   29.181003 5  543       Rx   d 8 AB 19 AC 0D 00 00 88 13 
   29.191597 5  543       Rx   d 8 AB 19 AC 0D 00 00 88 13 
   29.191810 4  611       Rx   d 8 A3 19 00 00 7C 02 E8 03 
   29.200964 5  543       Rx   d 8 AB 19 AC 0D 00 00 88 13 
   29.210964 5  543       Rx   d 8 AB 19 AC 0D 00 00 88 13 
   29.220962 5  543       Rx   d 8 AB 19 AC 0D 00 00 88 13 
   29.230962 5  543       Rx   d 8 AB 19 AC 0D 00 00 88 13 
   29.240961 5  543       Rx   d 8 AB 19 AC 0D 00 00 88 13 
   29.250961 5  543       Rx   d 8 AB 19 AC 0D 00 00 88 13 
   29.260960 5  543       Rx   d 8 AB 19 AC 0D 00 00 88 13 
   29.270960 5  543       Rx   d 8 AB 19 AC 0D 00 00 88 13 
   29.278120 2  731       Rx   d 8 02 00 00 00 00 01 00 00 
   29.280999 5  543       Rx   d 8 AB 19 AC 0D 00 00 88 13 
   29.291592 5  543       Rx   d 8 AB 19 AC 0D 00 00 88 13 
   29.291952 4  611       Rx   d 8 A3 19 00 00 7C 02 E8 03 
   29.300959 5  543       Rx   d 8 AB 19 AC 0D 00 00 88 13 
   29.310959 5  543       Rx   d 8 AB 19 AC 0D 00 00 88 13 
   29.320958 5  543       Rx   d 8 AB 19 AC 0D 00 00 88 13 
   29.330958 5  543       Rx   d 8 AB 19 AC 0D 00 00 88 13 
   29.340959 5  543       Rx   d 8 AB 19 AC 0D 00 00 88 13 
   29.350957 5  543       Rx   d 8 AB 19 AC 0D 00 00 88 13 
   29.360956 5  543       Rx   d 8 AB 19 AC 0D 00 00 88 13 
   29.370956 5  543       Rx   d 8 AB 19 AC 0D 00 00 88 13 
   29.378122 2  731       Rx   d 8 02 00 00 00 00 01 00 00 
   29.381002 5  543       Rx   d 8 AB 19 AC 0D 00 00 88 13 
   29.391588 5  543       Rx   d 8 AB 19 AC 0D 00 00 88 13 
   29.392656 4  611       Rx   d 8 A3 19 00 00 7C 02 E8 03 
   29.400954 5  543       Rx   d 8 AB 19 AC 0D 00 00 88 13 
   29.410954 5  543       Rx   d 8 AB 19 AC 0D 00 00 88 13 
   29.420955 5  543       Rx   d 8 AB 19 AC 0D 00 00 88 13 
   29.430955 5  543       Rx   d 8 AB 19 AC 0D 00 00 88 13 
   29.440956 5  543       Rx   d 8 AB 19 AC 0D 00 00 88 13 
   29.450954 5  543       Rx   d 8 AB 19 AC 0D 00 00 88 13 
   29.460955 5  543       Rx   d 8 AA 19 AC 0D 00 00 88 13 
   29.470953 5  543       Rx   d 8 AB 19 AC 0D 00 00 88 13 
   29.478129 2  731       Rx   d 8 02 00 00 00 00 01 00 00 
   29.481023 5  543       Rx   d 8 AB 19 AC 0D 00 00 88 13 
   29.491583 5  543       Rx   d 8 AB 19 AC 0D 00 00 88 13 
   29.493398 4  611       Rx   d 8 A3 19 00 00 7C 02 E8 03 
   29.500952 5  543       Rx   d 8 AB 19 AC 0D 00 00 88 13 
   29.510952 5  543       Rx   d 8 AB 19 AC 0D 00 00 88 13 
   29.520953 5  543       Rx   d 8 AB 19 AC 0D 00 00 88 13 
   29.530951 5  543       Rx   d 8 AB 19 AC 0D 00 00 88 13 
   29.540951 5  543       Rx   d 8 AB 19 AC 0D 00 00 88 13 
   29.550950 5  543       Rx   d 8 AB 19 AC 0D 00 00 88 13 
   29.560951 5  543       Rx   d 8 AB 19 AC 0D 00 00 88 13 
   29.570949 5  543       Rx   d 8 AB 19 AC 0D 00 00 88 13 
   29.578125 2  731       Rx   d 8 03 00 00 00 00 01 00 00 
   29.581026 5  543       Rx   d 8 AB 19 AC 0D 00 00 88 13 
   29.591582 5  543       Rx   d 8 AB 19 AC 0D 00 00 88 13 
   29.594143 4  611       Rx   d 8 A3 19 00 00 7C 02 E8 03 
   29.600950 5  543       Rx   d 8 AC 19 AC 0D 00 00 88 13 
   29.610948 5  543       Rx   d 8 AB 19 AC 0D 00 00 88 13 
   29.620949 5  543       Rx   d 8 AB 19 AC 0D 00 00 88 13 
   29.630949 5  543       Rx   d 8 AC 19 AC 0D 00 00 88 13 
   29.640950 5  543       Rx   d 8 AC 19 AC 0D 88 00 88 13 
   29.650945 5  543       Rx   d 8 AB 19 AC 0D 16 01 88 13 
   29.660944 5  543       Rx   d 8 AB 19 AC 0D BE 01 88 13 
   29.670942 5  543       Rx   d 8 AB 19 AC 0D 71 02 88 13 
   29.678129 2  731       Rx   d 8 03 00 00 00 00 01 00 00 
   29.681022 5  543       Rx   d 8 AB 19 AC 0D 23 03 88 13 
   29.691572 5  543       Rx   d 8 AB 19 AC 0D CE 03 88 13 
   29.694893 4  611       Rx   d 8 A3 19 00 00 7C 02 E8 03 
   29.700943 5  543       Rx   d 8 AB 19 AC 0D 6F 04 88 13 
   29.710945 5  543       Rx   d 8 AB 19 AC 0D 04 05 88 13 
   29.720941 5  543       Rx   d 8 AB 19 AC 0D 8C 05 88 13 
   29.730944 5  543       Rx   d 8 AB 19 AC 0D 07 06 88 13 
   29.740942 5  543       Rx   d 8 AB 19 AC 0D 76 06 88 13 
   29.750939 5  543       Rx   d 8 AB 19 AC 0D D8 06 88 13 
   29.760940 5  543       Rx   d 8 AB 19 AC 0D 2E 07 88 13 
   29.770940 5  543       Rx   d 8 AB 19 AC 0D 7B 07 88 13 
   29.778133 2  731       Rx   d 8 03 00 00 00 00 01 00 00 
   29.781030 5  543       Rx   d 8 AB 19 AC 0D BF 07 88 13 
   29.791572 5  543       Rx   d 8 AB 19 AC 0D FA 07 88 13 
   29.795645 4  611       Rx   d 8 A3 19 00 00 7C 02 E8 03 
   29.800937 5  543       Rx   d 8 AB 19 AC 0D 2E 08 88 13 
   29.810937 5  543       Rx   d 8 AB 19 AC 0D 5B 08 88 13 
   29.820937 5  543       Rx   d 8 AB 19 AC 0D 83 08 88 13 
   29.830934 5  543       Rx   d 8 AB 19 AC 0D A5 08 88 13 
   29.840936 5  543       Rx   d 8 AA 19 AC 0D C3 08 88 13 
   29.850935 5  543       Rx   d 8 AB 19 AC 0D DD 08 88 13 
   29.860936 5  543       Rx   d 8 AB 19 AC 0D F4 08 88 13 
   29.870935 5  543       Rx   d 8 AB 19 AC 0D 08 09 88 13 
   29.878130 2  731       Rx   d 8 03 00 00 00 00 01 00 00 
   29.881025 5  543       Rx   d 8 AB 19 AC 0D 19 09 88 13 
   29.890932 5  543       Rx   d 8 AB 19 AC 0D 27 09 88 13 
   29.896400 4  611       Rx   d 8 A3 19 00 00 7C 02 E8 03 
   29.900935 5  543       Rx   d 8 AB 19 AC 0D 33 09 88 13 
   29.910937 5  543       Rx   d 8 AB 19 AC 0D 3C 09 88 13 
   29.920932 5  543       Rx   d 8 AB 19 AC 0D 45 09 88 13 
   29.930934 5  543       Rx   d 8 AB 19 AC 0D 4C 09 88 13 
   29.940936 5  543       Rx   d 8 AB 19 AC 0D 52 09 88 13 
   29.950930 5  543       Rx   d 8 AB 19 AC 0D 57 09 88 13 
   29.960929 5  543       Rx   d 8 AB 19 AC 0D 5B 09 88 13 
   29.970938 5  543       Rx   d 8 AB 19 AC 0D 5F 09 88 13 
   29.978186 2  731       Rx   d 8 03 00 00 00 00 01 00 00 
   29.981083 5  543       Rx   d 8 AC 19 AC 0D 62 09 88 13 
   29.991562 5  543       Rx   d 8 AB 19 AC 0D 65 09 88 13 
   29.997151 4  611       Rx   d 8 A3 19 00 00 7C 02 E8 03 
   30.000926 5  543       Rx   d 8 AB 19 AC 0D 67 09 88 13 
   30.010930 5  543       Rx   d 8 AB 19 AC 0D 6A 09 88 13 
   30.020927 5  543       Rx   d 8 AB 19 AC 0D 6B 09 88 13 
   30.030928 5  543       Rx   d 8 AB 19 AC 0D 76 09 88 13 
   30.040930 5  543       Rx   d 8 AB 19 AC 0D 80 09 88 13 
   30.050929 5  543       Rx   d 8 AB 19 AC 0D 86 09 88 13 
   30.060926 5  543       Rx   d 8 AB 19 AC 0D 8B 09 88 13 
   30.070928 5  543       Rx   d 8 AB 19 AC 0D 8F 09 88 13 
   30.078164 2  731       Rx   d 8 03 00 00 00 00 01 00 00 
   30.081081 5  543       Rx   d 8 AB 19 AC 0D 92 09 88 13 
   30.091558 5  543       Rx   d 8 AB 19 AC 0D 94 09 88 13 
   30.098030 4  611       Rx   d 8 A3 19 00 00 7C 02 E8 03 
   30.100925 5  543       Rx   d 8 AB 19 AC 0D 95 09 88 13 
   30.110931 5  543       Rx   d 8 AB 19 AC 0D 96 09 88 13 
   30.120924 5  543       Rx   d 8 AB 19 AC 0D 97 09 88 13 
   30.130923 5  543       Rx   d 8 AB 19 AC 0D 97 09 88 13 
   30.140926 5  543       Rx   d 8 AB 19 AC 0D 98 09 88 13 
   30.150924 5  543       Rx   d 8 AB 19 AC 0D 98 09 88 13 
   30.160925 5  543       Rx   d 8 AB 19 AC 0D 98 09 88 13 
   30.170924 5  543       Rx   d 8 AB 19 AC 0D 98 09 88 13 
   30.178175 2  731       Rx   d 8 03 00 00 00 00 01 00 00 
   30.181093 5  543       Rx   d 8 AB 19 AC 0D 98 09 88 13 
   30.191556 5  543       Rx   d 8 AB 19 AC 0D 98 09 88 13 
   30.198894 4  611       Rx   d 8 A3 19 00 00 7C 02 E8 03 
   30.200925 5  543       Rx   d 8 AA 19 AC 0D 98 09 88 13 
   30.210923 5  543       Rx   d 8 AB 19 AC 0D 98 09 88 13 
   30.220922 5  543       Rx   d 8 AB 19 AC 0D 98 09 88 13 
   30.230921 5  543       Rx   d 8 AB 19 AC 0D 98 09 88 13 
   30.240922 5  543       Rx   d 8 AB 19 AC 0D 99 09 88 13 
   30.250921 5  543       Rx   d 8 AB 19 AC 0D 98 09 88 13 
   30.260920 5  543       Rx   d 8 AB 19 AC 0D 99 09 88 13 
   30.270920 5  543       Rx   d 8 AB 19 AC 0D 98 09 88 13 
   30.278171 2  731       Rx   d 8 03 00 00 00 00 01 00 00 
   30.281081 5  543       Rx   d 8 AB 19 AC 0D 98 09 88 13 
   30.291553 5  543       Rx   d 8 AA 19 AC 0D 98 09 88 13 
   30.299427 4  611       Rx   d 8 A3 19 00 00 7C 02 E8 03 
   30.300919 5  543       Rx   d 8 AB 19 AC 0D 98 09 88 13 
   30.310920 5  543       Rx   d 8 AB 19 AC 0D 98 09 88 13 
   30.320920 5  543       Rx   d 8 AA 19 AC 0D 98 09 88 13 
   30.330918 5  543       Rx   d 8 AB 19 AC 0D 98 09 88 13 
   30.340918 5  543       Rx   d 8 AB 19 AC 0D 98 09 88 13 
   30.350916 5  543       Rx   d 8 AB 19 AC 0D 98 09 88 13 
   30.360918 5  543       Rx   d 8 AB 19 AC 0D 98 09 88 13 
   30.370916 5  543       Rx   d 8 AB 19 AC 0D 98 09 88 13 
   30.378175 2  731       Rx   d 8 03 00 00 00 00 01 00 00 
   30.381073 5  543       Rx   d 8 AB 19 AC 0D 98 09 88 13 
   30.391547 5  543       Rx   d 8 AB 19 AC 0D 98 09 88 13 
   30.400245 4  611       Rx   d 8 A3 19 00 00 7C 02 E8 03 
   30.400914 5  543       Rx   d 8 AB 19 AC 0D 98 09 88 13 
   30.410914 5  543       Rx   d 8 AB 19 AC 0D 98 09 88 13 
   30.420912 5  543       Rx   d 8 AB 19 AC 0D 98 09 88 13 
   30.430912 5  543       Rx   d 8 AB 19 AC 0D 98 09 88 13 
   30.440912 5  543       Rx   d 8 AB 19 AC 0D 98 09 88 13 
   30.450913 5  543       Rx   d 8 AB 19 AC 0D 98 09 88 13 
   30.460912 5  543       Rx   d 8 AB 19 AC 0D 98 09 88 13 
   30.470912 5  543       Rx   d 8 AB 19 AC 0D 98 09 88 13 
   30.478175 2  731       Rx   d 8 03 00 00 00 00 01 00 00 
   30.481091 5  543       Rx   d 8 AB 19 AC 0D 98 09 88 13 
   30.490911 5  543       Rx   d 8 AB 19 AC 0D 98 09 88 13 
   30.500911 5  543       Rx   d 8 AB 19 AC 0D 98 09 88 13 
   30.501093 4  611       Rx   d 8 A3 19 00 00 7C 02 E8 03 
   30.510909 5  543       Rx   d 8 AB 19 AC 0D 98 09 88 13 
   30.520910 5  543       Rx   d 8 AB 19 AC 0D 98 09 88 13 
   30.530911 5  543       Rx   d 8 AC 19 AC 0D 98 09 88 13 
   30.540910 5  543       Rx   d 8 AB 19 AC 0D 98 09 88 13 
   30.550908 5  543       Rx   d 8 AB 19 AC 0D 98 09 88 13 
   30.560907 5  543       Rx   d 8 AB 19 AC 0D 98 09 88 13 
   30.570908 5  543       Rx   d 8 AB 19 AC 0D 98 09 88 13 
   30.578181 2  731       Rx   d 8 03 00 00 00 00 01 00 00 
   30.581091 5  543       Rx   d 8 AB 19 AC 0D 98 09 88 13 
   30.590908 5  543       Rx   d 8 AB 19 AC 0D 98 09 88 13 
   30.600905 5  543       Rx   d 8 AB 19 AC 0D 98 09 88 13 
   30.601679 4  611       Rx   d 8 A3 19 00 00 7C 02 E8 03 
   30.610906 5  543       Rx   d 8 AB 19 AC 0D 98 09 88 13 
   30.620906 5  543       Rx   d 8 AB 19 AC 0D 98 09 88 13 
   30.630904 5  543       Rx   d 8 AB 19 AC 0D 98 09 88 13 
   30.640904 5  543       Rx   d 8 AB 19 AC 0D 98 09 88 13 
   30.650903 5  543       Rx   d 8 AB 19 AC 0D 98 09 88 13 
   30.660904 5  543       Rx   d 8 AB 19 AC 0D 98 09 88 13 
   30.670904 5  543       Rx   d 8 AB 19 AC 0D 98 09 88 13 
   30.678181 2  731       Rx   d 8 03 00 00 00 00 01 00 00 
   30.681095 5  543       Rx   d 8 AB 19 AC 0D 98 09 88 13 
   30.691533 5  543       Rx   d 8 AB 19 AC 0D 98 09 88 13 
   30.700902 5  543       Rx   d 8 AB 19 AC 0D 98 09 88 13 
   30.702558 4  611       Rx   d 8 A3 19 00 00 7C 02 E8 03 
   30.710902 5  543       Rx   d 8 AB 19 AC 0D 98 09 88 13 
   30.720902 5  543       Rx   d 8 AB 19 AC 0D 98 09 88 13 
   30.730898 5  543       Rx   d 8 AA 19 AC 0D 97 09 88 13 
   30.740899 5  543       Rx   d 8 AB 19 AC 0D 97 09 88 13 
   30.750899 5  543       Rx   d 8 AB 19 AC 0D 97 09 88 13 
   30.760898 5  543       Rx   d 8 AB 19 AC 0D 97 09 88 13 
   30.770898 5  543       Rx   d 8 AB 19 AC 0D 97 09 88 13 
   30.778188 2  731       Rx   d 8 03 00 00 00 00 01 00 00 
   30.781086 5  543       Rx   d 8 AB 19 AC 0D 97 09 88 13 
   30.791527 5  543       Rx   d 8 AA 19 AC 0D 97 09 88 13 
   30.800896 5  543       Rx   d 8 AA 19 AC 0D 97 09 88 13 
   30.803130 4  611       Rx   d 8 A3 19 00 00 7C 02 E8 03 
   30.810896 5  543       Rx   d 8 AB 19 AC 0D 97 09 88 13 
   30.820895 5  543       Rx   d 8 AB 19 AC 0D 97 09 88 13 
   30.830895 5  543       Rx   d 8 AB 19 AC 0D 97 09 88 13 
   30.840895 5  543       Rx   d 8 AB 19 AC 0D 97 09 88 13 
   30.850896 5  543       Rx   d 8 AB 19 AC 0D 97 09 88 13 
   30.860895 5  543       Rx   d 8 AB 19 AC 0D 97 09 88 13 
   30.870895 5  543       Rx   d 8 AB 19 AC 0D 97 09 88 13 
   30.878186 2  731       Rx   d 8 03 00 00 00 00 01 00 00 
   30.881098 5  543       Rx   d 8 AC 19 AC 0D 97 09 88 13 
   30.891527 5  543       Rx   d 8 AC 19 AC 0D 97 09 88 13 
   30.900892 5  543       Rx   d 8 AB 19 AC 0D 97 09 88 13 
   30.904933 4  611       Rx   d 8 A3 19 00 00 7C 02 E8 03 
   30.910892 5  543       Rx   d 8 AB 19 AC 0D 97 09 88 13 
   30.920893 5  543       Rx   d 8 AB 19 AC 0D 97 09 88 13 
   30.930892 5  543       Rx   d 8 AB 19 AC 0D 97 09 88 13 
   30.940890 5  543       Rx   d 8 AB 19 AC 0D 97 09 88 13 
   30.950891 5  543       Rx   d 8 AB 19 AC 0D 97 09 88 13 
   30.960890 5  543       Rx   d 8 AB 19 AC 0D 97 09 88 13 
   30.970890 5  543       Rx   d 8 AB 19 AC 0D 97 09 88 13 
   30.978198 2  731       Rx   d 8 03 00 00 00 00 01 00 00 
   30.981096 5  543       Rx   d 8 AB 19 AC 0D 97 09 88 13 
   30.991520 5  543       Rx   d 8 AB 19 AC 0D 97 09 88 13 
   31.000888 5  543       Rx   d 8 AB 19 AC 0D 97 09 88 13 
   31.004926 4  611       Rx   d 8 A3 19 00 00 7C 02 E8 03 
   31.010890 5  543       Rx   d 8 AA 19 AC 0D 97 09 88 13 
   31.020889 5  543       Rx   d 8 AB 19 AC 0D 97 09 88 13 
   31.030889 5  543       Rx   d 8 AB 19 AC 0D 97 09 88 13 
   31.040893 5  543       Rx   d 8 AB 19 AC 0D 96 09 88 13 
   31.050888 5  543       Rx   d 8 AB 19 AC 0D 97 09 88 13 
   31.060887 5  543       Rx   d 8 AB 19 AC 0D 97 09 88 13 
   31.070887 5  543       Rx   d 8 AB 19 AC 0D 97 09 88 13 
   31.078183 2  731       Rx   d 8 03 00 00 00 00 01 00 00 
   31.081088 5  543       Rx   d 8 AB 19 AC 0D 97 09 88 13 
   31.091520 5  543       Rx   d 8 AB 19 AC 0D 96 09 88 13 
   31.100888 5  543       Rx   d 8 AC 19 AC 0D 96 09 88 13 
   31.105678 4  611       Rx   d 8 A3 19 00 00 7C 02 E8 03 
   31.110891 5  543       Rx   d 8 AB 19 AC 0D 96 09 88 13 
   31.120889 5  543       Rx   d 8 AB 19 AC 0D 96 09 88 13 
   31.130889 5  543       Rx   d 8 AB 19 AC 0D 96 09 88 13 
   31.140885 5  543       Rx   d 8 AC 19 AC 0D 96 09 88 13 
   31.150888 5  543       Rx   d 8 AB 19 AC 0D 96 09 88 13 
   31.160889 5  543       Rx   d 8 AB 19 AC 0D 96 09 88 13 
   31.170889 5  543       Rx   d 8 AB 19 AC 0D 96 09 88 13 
   31.178183 2  731       Rx   d 8 03 00 00 00 00 01 00 00 
   31.181103 5  543       Rx   d 8 AB 19 AC 0D 97 09 88 13 
   31.190888 5  543       Rx   d 8 AB 19 AC 0D 96 09 88 13 
   31.200887 5  543       Rx   d 8 AB 19 AC 0D 96 09 88 13 
   31.207123 4  611       Rx   d 8 A3 19 00 00 7C 02 E8 03 
   31.210881 5  543       Rx   d 8 AA 19 AC 0D 97 09 88 13 
   31.220880 5  543       Rx   d 8 AA 19 AC 0D 97 09 88 13 
   31.230879 5  543       Rx   d 8 AA 19 AC 0D 97 09 88 13 
   31.240885 5  543       Rx   d 8 AB 19 AC 0D 96 09 88 13 
   31.250882 5  543       Rx   d 8 AA 19 AC 0D 96 09 88 13 
   31.260885 5  543       Rx   d 8 AB 19 AC 0D 96 09 88 13 
   31.270883 5  543       Rx   d 8 AB 19 AC 0D 96 09 88 13 
   31.278189 2  731       Rx   d 8 03 00 00 00 00 01 00 00 
   31.281105 5  543       Rx   d 8 AB 19 AC 0D 96 09 88 13 
   31.291512 5  543       Rx   d 8 AB 19 AC 0D 96 09 88 13 
   31.300881 5  543       Rx   d 8 AB 19 AC 0D 96 09 88 13 
   31.308263 4  611       Rx   d 8 A3 19 00 00 7C 02 E8 03 
   31.310881 5  543       Rx   d 8 AB 19 AC 0D 96 09 88 13 
   31.320882 5  543       Rx   d 8 AB 19 AC 0D 96 09 88 13 
   31.330882 5  543       Rx   d 8 AB 19 AC 0D 96 09 88 13 
   31.340880 5  543       Rx   d 8 AB 19 AC 0D 96 09 88 13 
   31.350881 5  543       Rx   d 8 AB 19 AC 0D 96 09 88 13 
   31.360880 5  543       Rx   d 8 AB 19 AC 0D 96 09 88 13 
   31.370880 5  543       Rx   d 8 AB 19 AC 0D 96 09 88 13 
   31.378191 2  731       Rx   d 8 03 00 00 00 00 01 00 00 
   31.381107 5  543       Rx   d 8 AB 19 AC 0D 96 09 88 13 
   31.391507 5  543       Rx   d 8 AB 19 AC 0D 96 09 88 13 
   31.400878 5  543       Rx   d 8 AB 19 AC 0D 96 09 88 13 
   31.408566 4  611       Rx   d 8 A3 19 00 00 7C 02 E8 03 
   31.410874 5  543       Rx   d 8 AA 19 AC 0D 96 09 88 13 
   31.420876 5  543       Rx   d 8 AB 19 AC 0D 96 09 88 13 
   31.430872 5  543       Rx   d 8 AA 19 AC 0D 96 09 88 13 
   31.440872 5  543       Rx   d 8 AA 19 AC 0D 96 09 88 13 
   31.450873 5  543       Rx   d 8 AA 19 AC 0D 96 09 88 13 
   31.460870 5  543       Rx   d 8 AB 19 AC 0D 95 09 88 13 
   31.470870 5  543       Rx   d 8 AA 19 AC 0D 95 09 88 13 
   31.478197 2  731       Rx   d 8 03 00 00 00 00 01 00 00 
   31.481100 5  543       Rx   d 8 AA 19 AC 0D 95 09 88 13 
   31.491497 5  543       Rx   d 8 AA 19 AC 0D 95 09 88 13 
   31.500868 5  543       Rx   d 8 AB 19 AC 0D 95 09 88 13 
   31.509231 4  611       Rx   d 8 A3 19 00 00 7C 02 E8 03 
   31.510868 5  543       Rx   d 8 AB 19 AC 0D 95 09 88 13 
   31.520868 5  543       Rx   d 8 AB 19 AC 0D 95 09 88 13 
   31.530866 5  543       Rx   d 8 AB 19 AC 0D 95 09 88 13 
   31.540866 5  543       Rx   d 8 AB 19 AC 0D 95 09 88 13 
   31.550873 5  543       Rx   d 8 AB 19 AC 0D 96 09 88 13 
   31.560872 5  543       Rx   d 8 AB 19 AC 0D 96 09 88 13 
   31.570872 5  543       Rx   d 8 AB 19 AC 0D 96 09 88 13 
   31.578198 2  731       Rx   d 8 03 00 00 00 00 01 00 00 
   31.581092 5  543       Rx   d 8 AA 19 AC 0D 95 09 88 13 
   31.591493 5  543       Rx   d 8 AA 19 AC 0D 95 09 88 13 
   31.600866 5  543       Rx   d 8 AA 19 AC 0D 95 09 88 13 
   31.610695 4  611       Rx   d 8 A3 19 00 00 7C 02 E8 03 
   31.610864 5  543       Rx   d 8 AB 19 AC 0D 95 09 88 13 
   31.620864 5  543       Rx   d 8 AB 19 AC 0D 95 09 88 13 
   31.630862 5  543       Rx   d 8 AA 19 AC 0D 95 09 88 13 
   31.640863 5  543       Rx   d 8 AA 19 AC 0D 95 09 88 13 
   31.650862 5  543       Rx   d 8 AB 19 AC 0D 95 09 88 13 
   31.660863 5  543       Rx   d 8 AA 19 AC 0D 95 09 88 13 
   31.670861 5  543       Rx   d 8 AB 19 AC 0D 95 09 88 13 
   31.678204 2  731       Rx   d 8 03 00 00 00 00 01 00 00 
   31.681104 5  543       Rx   d 8 AA 19 AC 0D 95 09 88 13 
   31.691489 5  543       Rx   d 8 AB 19 AC 0D 95 09 88 13 
   31.700858 5  543       Rx   d 8 AB 19 AC 0D 95 09 88 13 
   31.710695 4  611       Rx   d 8 A3 19 00 00 7C 02 E8 03 
   31.710860 5  543       Rx   d 8 AB 19 AC 0D 95 09 88 13 
   31.720859 5  543       Rx   d 8 AA 19 AC 0D 95 09 88 13 
   31.730858 5  543       Rx   d 8 AB 19 AC 0D 95 09 88 13 
   31.740859 5  543       Rx   d 8 AB 19 AC 0D 95 09 88 13 
   31.750859 5  543       Rx   d 8 AB 19 AC 0D 95 09 88 13 
   31.760858 5  543       Rx   d 8 AB 19 AC 0D 95 09 88 13 
   31.770858 5  543       Rx   d 8 AB 19 AC 0D 95 09 88 13 
   31.778206 2  731       Rx   d 8 03 00 00 00 00 01 00 00 
   31.781092 5  543       Rx   d 8 AB 19 AC 0D 95 09 88 13 
   31.791485 5  543       Rx   d 8 AB 19 AC 0D 95 09 88 13 
   31.800858 5  543       Rx   d 8 AB 19 AC 0D 95 09 88 13 
   31.810856 5  543       Rx   d 8 AB 19 AC 0D 95 09 88 13 
   31.811662 4  611       Rx   d 8 A3 19 00 00 7C 02 E8 03 
   31.820857 5  543       Rx   d 8 AB 19 AC 0D 95 09 88 13 
   31.830854 5  543       Rx   d 8 AB 19 AC 0D 95 09 88 13 
   31.840854 5  543       Rx   d 8 AA 19 AC 0D 95 09 88 13 
   31.850855 5  543       Rx   d 8 AB 19 AC 0D 95 09 88 13 
   31.860854 5  543       Rx   d 8 AB 19 AC 0D 95 09 88 13 
   31.870854 5  543       Rx   d 8 AB 19 AC 0D 95 09 88 13 
   31.878212 2  731       Rx   d 8 03 00 00 00 00 01 00 00 
   31.880861 5  543       Rx   d 8 AB 19 AC 0D 95 09 88 13 
   31.891485 5  543       Rx   d 8 AB 19 AC 0D 95 09 88 13 
   31.900854 5  543       Rx   d 8 AB 19 AC 0D 95 09 88 13 
   31.910854 5  543       Rx   d 8 AB 19 AC 0D 95 09 88 13 
   31.912156 4  611       Rx   d 8 A3 19 00 00 7C 02 E8 03 
   31.920854 5  543       Rx   d 8 AB 19 AC 0D 94 09 88 13 
   31.930852 5  543       Rx   d 8 AB 19 AC 0D 95 09 88 13 
   31.940852 5  543       Rx   d 8 AA 19 AC 0D 95 09 88 13 
   31.950851 5  543       Rx   d 8 AB 19 AC 0D 95 09 88 13 
   31.960852 5  543       Rx   d 8 AA 19 AC 0D 95 09 88 13 
   31.970852 5  543       Rx   d 8 AA 19 AC 0D 95 09 88 13 
   31.978226 2  731       Rx   d 8 03 00 00 00 00 01 00 00 
   31.980861 5  543       Rx   d 8 AB 19 AC 0D 95 09 88 13 
   31.991480 5  543       Rx   d 8 AA 19 AC 0D 95 09 88 13 
   32.000851 5  543       Rx   d 8 AA 19 AC 0D 95 09 88 13 
   32.010849 5  543       Rx   d 8 AB 19 AC 0D 95 09 88 13 
   32.012882 4  611       Rx   d 8 A3 19 00 00 7C 02 E8 03 
   32.020850 5  543       Rx   d 8 AB 19 AC 0D 95 09 88 13 
   32.030849 5  543       Rx   d 8 AA 19 AC 0D 95 09 88 13 
   32.040849 5  543       Rx   d 8 AA 19 AC 0D 95 09 88 13 
   32.050848 5  543       Rx   d 8 AA 19 AC 0D 95 09 88 13 
   32.060847 5  543       Rx   d 8 AA 19 AC 0D 95 09 88 13 
   32.070847 5  543       Rx   d 8 AB 19 AC 0D 95 09 88 13 
   32.078219 2  731       Rx   d 8 03 00 00 00 00 01 00 00 
   32.080859 5  543       Rx   d 8 AA 19 AC 0D 95 09 88 13 
   32.091476 5  543       Rx   d 8 AB 19 AC 0D 95 09 88 13 
   32.100847 5  543       Rx   d 8 AA 19 AC 0D 95 09 88 13 
   32.110845 5  543       Rx   d 8 AA 19 AC 0D 95 09 88 13 
   32.113606 4  611       Rx   d 8 A3 19 00 00 7C 02 E8 03 
   32.120846 5  543       Rx   d 8 AA 19 AC 0D 95 09 88 13 
   32.130847 5  543       Rx   d 8 AA 19 AC 0D 94 09 88 13 
   32.140846 5  543       Rx   d 8 AA 19 AC 0D 94 09 88 13 
   32.150846 5  543       Rx   d 8 AA 19 AC 0D 94 09 88 13 
   32.160845 5  543       Rx   d 8 AB 19 AC 0D 94 09 88 13 
   32.170843 5  543       Rx   d 8 AB 19 AC 0D 95 09 88 13 
   32.178221 2  731       Rx   d 8 03 00 00 00 00 01 00 00 
   32.180859 5  543       Rx   d 8 AB 19 AC 0D 94 09 88 13 
   32.191476 5  543       Rx   d 8 AB 19 AC 0D 94 09 88 13 
   32.200843 5  543       Rx   d 8 AB 19 AC 0D 94 09 88 13 
   32.210843 5  543       Rx   d 8 AB 19 AC 0D 94 09 88 13 
   32.214334 4  611       Rx   d 8 A3 19 00 00 7C 02 E8 03 
   32.220844 5  543       Rx   d 8 AB 19 AC 0D 94 09 88 13 
   32.230844 5  543       Rx   d 8 AB 19 AC 0D 94 09 88 13 
   32.240842 5  543       Rx   d 8 AB 19 AC 0D 94 09 88 13 
   32.250843 5  543       Rx   d 8 AB 19 AC 0D 94 09 88 13 
   32.260842 5  543       Rx   d 8 AB 19 AC 0D 94 09 88 13 
   32.270842 5  543       Rx   d 8 AA 19 AC 0D 94 09 88 13 
   32.278227 2  731       Rx   d 8 03 00 00 00 00 01 00 00 
   32.280865 5  543       Rx   d 8 AB 19 AC 0D 94 09 88 13 
   32.290840 5  543       Rx   d 8 AB 19 AC 0D 94 09 88 13 
   32.300841 5  543       Rx   d 8 AB 19 AC 0D 94 09 88 13 
   32.310841 5  543       Rx   d 8 AB 19 AC 0D 94 09 88 13 
   32.315100 4  611       Rx   d 8 A3 19 00 00 7C 02 E8 03 
   32.320842 5  543       Rx   d 8 AB 19 AC 0D 94 09 88 13 
   32.330841 5  543       Rx   d 8 AB 19 AC 0D 94 09 88 13 
   32.340840 5  543       Rx   d 8 AB 19 AC 0D 94 09 88 13 
   32.350840 5  543       Rx   d 8 AB 19 AC 0D 94 09 88 13 
   32.360840 5  543       Rx   d 8 AB 19 AC 0D 94 09 88 13 
   32.370840 5  543       Rx   d 8 AB 19 AC 0D 94 09 88 13 
   32.378229 2  731       Rx   d 8 03 00 00 00 00 01 00 00 
   32.380871 5  543       Rx   d 8 AB 19 AC 0D 94 09 88 13 
   32.390838 5  543       Rx   d 8 AA 19 AC 0D 94 09 88 13 
   32.400837 5  543       Rx   d 8 AA 19 AC 0D 94 09 88 13 
   32.410836 5  543       Rx   d 8 AA 19 AC 0D 94 09 88 13 
   32.415786 4  611       Rx   d 8 A3 19 00 00 7C 02 E8 03 
   32.420836 5  543       Rx   d 8 AA 19 AC 0D 94 09 88 13 
   32.430836 5  543       Rx   d 8 AA 19 AC 0D 94 09 88 13 
   32.440834 5  543       Rx   d 8 AA 19 AC 0D 94 09 88 13 
   32.450835 5  543       Rx   d 8 AA 19 AC 0D 94 09 88 13 
   32.460835 5  543       Rx   d 8 AA 19 AC 0D 94 09 88 13 
   32.470836 5  543       Rx   d 8 AA 19 AC 0D 94 09 88 13 
   32.478233 2  731       Rx   d 8 03 00 00 00 00 01 00 00 
   32.480871 5  543       Rx   d 8 AA 19 AC 0D 94 09 88 13 
   32.491464 5  543       Rx   d 8 AB 19 AC 0D 94 09 88 13 
   32.500833 5  543       Rx   d 8 AB 19 AC 0D 94 09 88 13 
   32.510833 5  543       Rx   d 8 AA 19 AC 0D 94 09 88 13 
   32.517074 4  611       Rx   d 8 A3 19 00 00 7C 02 E8 03 
   32.520834 5  543       Rx   d 8 AA 19 AC 0D 94 09 88 13 
   32.530832 5  543       Rx   d 8 AA 19 AC 0D 94 09 88 13 
   32.540832 5  543       Rx   d 8 AB 19 AC 0D 94 09 88 13 
   32.550832 5  543       Rx   d 8 AA 19 AC 0D 94 09 88 13 
   32.560832 5  543       Rx   d 8 AA 19 AC 0D 94 09 88 13 
   32.570832 5  543       Rx   d 8 AA 19 AC 0D 94 09 88 13 
   32.578238 2  731       Rx   d 8 04 00 00 00 00 01 00 00 
   32.580861 5  543       Rx   d 8 AA 19 AC 0D 93 09 88 13 
   32.591458 5  543       Rx   d 8 AA 19 AC 0D 93 09 88 13 
   32.600827 5  543       Rx   d 8 AB 19 AC 0D 93 09 88 13 
   32.610827 5  543       Rx   d 8 AB 19 AC 0D 93 09 88 13 
   32.617237 4  611       Rx   d 8 A3 19 00 00 7C 02 E8 03 
   32.620828 5  543       Rx   d 8 AB 19 AC 0D 93 09 88 13 
   32.630830 5  543       Rx   d 8 AA 19 AC 0D 94 09 88 13 
   32.640828 5  543       Rx   d 8 AB 19 AC 0D 94 09 88 13 
   32.650827 5  543       Rx   d 8 AA 19 AC 0D 95 09 88 13 
   32.660828 5  543       Rx   d 8 AB 19 AC 0D 9D 09 88 13 
   32.670830 5  543       Rx   d 8 AB 19 AC 0D A2 09 88 13 
   32.678242 2  731       Rx   d 8 04 00 00 00 00 01 00 00 
   32.680857 5  543       Rx   d 8 AB 19 AC 0D A6 09 88 13 
   32.691457 5  543       Rx   d 8 AA 19 AC 0D A8 09 88 13 
   32.700826 5  543       Rx   d 8 AA 19 AC 0D AA 09 88 13 
   32.710824 5  543       Rx   d 8 AA 19 AC 0D AB 09 88 13 
   32.717968 4  611       Rx   d 8 A3 19 00 00 7C 02 E8 03 
   32.720824 5  543       Rx   d 8 AB 19 AC 0D AC 09 88 13 
   32.730824 5  543       Rx   d 8 AB 19 AC 0D AD 09 88 13 
   32.740822 5  543       Rx   d 8 AB 19 AC 0D AD 09 88 13 
   32.750823 5  543       Rx   d 8 AB 19 AC 0D AD 09 88 13 
   32.760825 5  543       Rx   d 8 AA 19 AC 0D AE 09 88 13 
   32.770825 5  543       Rx   d 8 AA 19 AC 0D AE 09 88 13 
   32.778245 2  731       Rx   d 8 04 00 00 00 00 01 00 00 
   32.780866 5  543       Rx   d 8 AA 19 AC 0D AE 09 88 13 
   32.791454 5  543       Rx   d 8 AA 19 AC 0D AE 09 88 13 
   32.800823 5  543       Rx   d 8 AA 19 AC 0D AE 09 88 13 
   32.810823 5  543       Rx   d 8 AA 19 AC 0D AE 09 88 13 
   32.818829 4  611       Rx   d 8 A3 19 00 00 7C 02 E8 03 
   32.820820 5  543       Rx   d 8 AB 19 AC 0D AF 09 88 13 
   32.830820 5  543       Rx   d 8 AA 19 AC 0D AF 09 88 13 
   32.840819 5  543       Rx   d 8 AB 19 AC 0D AE 09 88 13 
   32.850816 5  543       Rx   d 8 AA 19 AC 0D AF 09 88 13 
   32.860821 5  543       Rx   d 8 AA 19 AC 0D AE 09 88 13 
   32.870819 5  543       Rx   d 8 AB 19 AC 0D AF 09 88 13 
   32.878251 2  731       Rx   d 8 04 00 00 00 00 01 00 00 
   32.880862 5  543       Rx   d 8 AB 19 AC 0D AF 09 88 13 
   32.891450 5  543       Rx   d 8 AA 19 AC 0D AE 09 88 13 
   32.900816 5  543       Rx   d 8 AB 19 AC 0D AE 09 88 13 
   32.910816 5  543       Rx   d 8 AB 19 AC 0D AE 09 88 13 
   32.919429 4  611       Rx   d 8 A3 19 00 00 7C 02 E8 03 
   32.920815 5  543       Rx   d 8 AB 19 AC 0D AE 09 88 13 
   32.930815 5  543       Rx   d 8 AB 19 AC 0D AF 09 88 13 
   32.940815 5  543       Rx   d 8 AB 19 AC 0D AE 09 88 13 
   32.950816 5  543       Rx   d 8 AB 19 AC 0D AE 09 88 13 
   32.960815 5  543       Rx   d 8 AB 19 AC 0D AE 09 88 13 
   32.970815 5  543       Rx   d 8 AB 19 AC 0D AE 09 88 13 
   32.978251 2  731       Rx   d 8 04 00 00 00 00 01 00 00 
   32.980880 5  543       Rx   d 8 AB 19 AC 0D AE 09 88 13 
   32.990813 5  543       Rx   d 8 AA 19 AC 0D AF 09 88 13 
   33.000810 5  543       Rx   d 8 AA 19 AC 0D AF 09 88 13 
   33.010812 5  543       Rx   d 8 AB 19 AC 0D AF 09 88 13 
   33.020161 4  611       Rx   d 8 A3 19 00 00 7C 02 E8 03 
   33.020813 5  543       Rx   d 8 AA 19 AC 0D B0 09 88 13 
   33.030812 5  543       Rx   d 8 AA 19 AC 0D B0 09 88 13 
   33.040811 5  543       Rx   d 8 AA 19 AC 0D B0 09 88 13 
   33.050811 5  543       Rx   d 8 AA 19 AC 0D B1 09 88 13 
   33.060810 5  543       Rx   d 8 AA 19 AC 0D B1 09 88 13 
   33.070811 5  543       Rx   d 8 AA 19 AC 0D B1 09 88 13 
   33.078258 2  731       Rx   d 8 04 00 00 00 00 01 00 00 
   33.080882 5  543       Rx   d 8 AA 19 AC 0D B1 09 88 13 
   33.091439 5  543       Rx   d 8 AA 19 AC 0D B1 09 88 13 
   33.100810 5  543       Rx   d 8 AA 19 AC 0D B1 09 88 13 
   33.110808 5  543       Rx   d 8 AA 19 AC 0D B1 09 88 13 
   33.120809 5  543       Rx   d 8 AA 19 AC 0D B1 09 88 13 
   33.120891 4  611       Rx   d 8 A3 19 00 00 7C 02 E8 03 
   33.130808 5  543       Rx   d 8 AA 19 AC 0D B1 09 88 13 
   33.140808 5  543       Rx   d 8 AA 19 AC 0D B1 09 88 13 
   33.150807 5  543       Rx   d 8 AA 19 AC 0D B1 09 88 13 
   33.160806 5  543       Rx   d 8 AA 19 AC 0D B1 09 88 13 
   33.170806 5  543       Rx   d 8 AA 19 AC 0D B1 09 88 13 
   33.178258 2  731       Rx   d 8 04 00 00 00 00 01 00 00 
   33.180884 5  543       Rx   d 8 AB 19 AC 0D B1 09 88 13 
   33.191435 5  543       Rx   d 8 AA 19 AC 0D B1 09 88 13 
   33.200804 5  543       Rx   d 8 AB 19 AC 0D B1 09 88 13 
   33.210802 5  543       Rx   d 8 AB 19 AC 0D B1 09 88 13 
   33.220805 5  543       Rx   d 8 AA 19 AC 0D B1 09 88 13 
   33.221849 4  611       Rx   d 8 A3 19 00 00 7C 02 E8 03 
   33.230804 5  543       Rx   d 8 AA 19 AC 0D B1 09 88 13 
   33.240805 5  543       Rx   d 8 AA 19 AC 0D B2 09 88 13 
   33.250803 5  543       Rx   d 8 AA 19 AC 0D B1 09 88 13 
   33.260802 5  543       Rx   d 8 AA 19 AC 0D B1 09 88 13 
   33.270803 5  543       Rx   d 8 AA 19 AC 0D B1 09 88 13 
   33.278265 2  731       Rx   d 8 04 00 00 00 00 01 00 00 
   33.280880 5  543       Rx   d 8 AA 19 AC 0D B1 09 88 13 
   33.290803 5  543       Rx   d 8 AA 19 AC 0D B1 09 88 13 
   33.300802 5  543       Rx   d 8 AA 19 AC 0D B1 09 88 13 
   33.310800 5  543       Rx   d 8 AA 19 AC 0D B1 09 88 13 
   33.320801 5  543       Rx   d 8 AA 19 AC 0D B2 09 88 13 
   33.322346 4  611       Rx   d 8 A3 19 00 00 7C 02 E8 03 
   33.330800 5  543       Rx   d 8 AA 19 AC 0D B2 09 88 13 
   33.340799 5  543       Rx   d 8 AB 19 AC 0D B1 09 88 13 
   33.350797 5  543       Rx   d 8 AB 19 AC 0D B1 09 88 13 
   33.360796 5  543       Rx   d 8 AB 19 AC 0D B1 09 88 13 
   33.370799 5  543       Rx   d 8 AB 19 AC 0D B2 09 88 13 
   33.378267 2  731       Rx   d 8 04 00 00 00 00 01 00 00 
   33.380888 5  543       Rx   d 8 AB 19 AC 0D B1 09 88 13 
   33.390799 5  543       Rx   d 8 AA 19 AC 0D B2 09 88 13 
   33.400798 5  543       Rx   d 8 AA 19 AC 0D B2 09 88 13 
   33.410796 5  543       Rx   d 8 AA 19 AC 0D B1 09 88 13 
   33.420795 5  543       Rx   d 8 AB 19 AC 0D B1 09 88 13 
   33.423066 4  611       Rx   d 8 A3 19 00 00 7C 02 E8 03 
   33.430796 5  543       Rx   d 8 AA 19 AC 0D B1 09 88 13 
   33.440794 5  543       Rx   d 8 AB 19 AC 0D B1 09 88 13 
   33.450793 5  543       Rx   d 8 AB 19 AC 0D B1 09 88 13 
   33.460794 5  543       Rx   d 8 AB 19 AC 0D B2 09 88 13 
   33.470796 5  543       Rx   d 8 AB 19 AC 0D B2 09 88 13 
   33.478272 2  731       Rx   d 8 04 00 00 00 00 01 00 00 
   33.480892 5  543       Rx   d 8 AB 19 AC 0D B1 09 88 13 
   33.491425 5  543       Rx   d 8 AB 19 AC 0D B2 09 88 13 
   33.500792 5  543       Rx   d 8 AB 19 AC 0D B1 09 88 13 
   33.510794 5  543       Rx   d 8 AA 19 AC 0D B1 09 88 13 
   33.520791 5  543       Rx   d 8 AB 19 AC 0D B1 09 88 13 
   33.523785 4  611       Rx   d 8 A3 19 00 00 7C 02 E8 03 
   33.530790 5  543       Rx   d 8 AB 19 AC 0D B1 09 88 13 
   33.540790 5  543       Rx   d 8 AB 19 AC 0D B1 09 88 13 
   33.550789 5  543       Rx   d 8 AB 19 AC 0D B1 09 88 13 
   33.560788 5  543       Rx   d 8 AB 19 AC 0D B1 09 88 13 
   33.570789 5  543       Rx   d 8 AB 19 AC 0D B1 09 88 13 
   33.578276 2  731       Rx   d 8 04 00 00 00 00 01 00 00 
   33.580882 5  543       Rx   d 8 AA 19 AC 0D B1 09 88 13 
   33.591420 5  543       Rx   d 8 AA 19 AC 0D B1 09 88 13 
   33.600788 5  543       Rx   d 8 AB 19 AC 0D B1 09 88 13 
   33.610789 5  543       Rx   d 8 AA 19 AC 0D B1 09 88 13 
   33.620787 5  543       Rx   d 8 AB 19 AC 0D B1 09 88 13 
   33.624519 4  611       Rx   d 8 A3 19 00 00 7C 02 E8 03 
   33.630787 5  543       Rx   d 8 AB 19 AC 0D B1 09 88 13 
   33.640787 5  543       Rx   d 8 AB 19 AC 0D B1 09 88 13 
   33.650785 5  543       Rx   d 8 AB 19 AC 0D B1 09 88 13 
   33.660788 5  543       Rx   d 8 AA 19 AC 0D B1 09 88 13 
   33.670787 5  543       Rx   d 8 AA 19 AC 0D B2 09 88 13 
   33.678281 2  731       Rx   d 8 04 00 00 00 00 01 00 00 
   33.680896 5  543       Rx   d 8 AA 19 AC 0D B1 09 88 13 
   33.691416 5  543       Rx   d 8 AB 19 AC 0D B2 09 88 13 
   33.700784 5  543       Rx   d 8 AA 19 AC 0D B1 09 88 13 
   33.710782 5  543       Rx   d 8 AB 19 AC 0D B1 09 88 13 
   33.720783 5  543       Rx   d 8 AA 19 AC 0D B2 09 88 13 
   33.725297 4  611       Rx   d 8 A3 19 00 00 7C 02 E8 03 
   33.730783 5  543       Rx   d 8 AA 19 AC 0D B1 09 88 13 
   33.740783 5  543       Rx   d 8 AA 19 AC 0D B1 09 88 13 
   33.750782 5  543       Rx   d 8 AA 19 AC 0D B1 09 88 13 
   33.760782 5  543       Rx   d 8 AA 19 AC 0D B1 09 88 13 
   33.770782 5  543       Rx   d 8 AA 19 AC 0D B2 09 88 13 
   33.778283 2  731       Rx   d 8 04 00 00 00 00 01 00 00 
   33.780886 5  543       Rx   d 8 AA 19 AC 0D B5 09 88 13 
   33.791415 5  543       Rx   d 8 AA 19 AC 0D BE 09 88 13 
   33.800780 5  543       Rx   d 8 AA 19 AC 0D C9 09 88 13 
   33.810780 5  543       Rx   d 8 AB 19 AC 0D D6 09 88 13 
   33.820781 5  543       Rx   d 8 AB 19 AC 0D E6 09 88 13 
   33.825971 4  611       Rx   d 8 A3 19 00 00 7C 02 E8 03 
   33.830782 5  543       Rx   d 8 AB 19 AC 0D F6 09 88 13 
   33.840779 5  543       Rx   d 8 AA 19 AC 0D 07 0A 88 13 
   33.850779 5  543       Rx   d 8 AA 19 AC 0D 1A 0A 88 13 
   33.860778 5  543       Rx   d 8 AA 19 AC 0D 2C 0A 88 13 
   33.870782 5  543       Rx   d 8 AA 19 AC 0D 40 0A 88 13 
   33.878287 2  731       Rx   d 8 04 00 00 00 00 01 00 00 
   33.880888 5  543       Rx   d 8 AA 19 AC 0D 53 0A 88 13 
   33.891409 5  543       Rx   d 8 AA 19 AC 0D 66 0A 88 13 
   33.900778 5  543       Rx   d 8 AB 19 AC 0D 7A 0A 88 13 
   33.910776 5  543       Rx   d 8 AA 19 AC 0D 8E 0A 88 13 
   33.920776 5  543       Rx   d 8 AB 19 AC 0D A2 0A 88 13 
   33.926695 4  611       Rx   d 8 A3 19 00 00 7C 02 E8 03 
   33.930774 5  543       Rx   d 8 AB 19 AC 0D B7 0A 88 13 
   33.940773 5  543       Rx   d 8 AB 19 AC 0D CB 0A 88 13 
   33.950775 5  543       Rx   d 8 AA 19 AC 0D E0 0A 88 13 
   33.960776 5  543       Rx   d 8 AA 19 AC 0D F3 0A 88 13 
   33.970777 5  543       Rx   d 8 AA 19 AC 0D 08 0B 88 13 
   33.978288 2  731       Rx   d 8 04 00 00 00 00 01 00 00 
   33.980910 5  543       Rx   d 8 AA 19 AC 0D 1C 0B 88 13 
   33.991403 5  543       Rx   d 8 AB 19 AC 0D 30 0B 88 13 
   34.000773 5  543       Rx   d 8 AA 19 AC 0D 45 0B 88 13 
   34.010772 5  543       Rx   d 8 AA 19 AC 0D 59 0B 88 13 
   34.020772 5  543       Rx   d 8 AA 19 AC 0D 6D 0B 88 13 
   34.027410 4  611       Rx   d 8 A3 19 00 00 7C 02 E8 03 
   34.030772 5  543       Rx   d 8 AB 19 AC 0D 81 0B 88 13 
   34.040774 5  543       Rx   d 8 AB 19 AC 0D 96 0B 88 13 
   34.050773 5  543       Rx   d 8 AB 19 AC 0D AA 0B 88 13 
   34.060772 5  543       Rx   d 8 AB 19 AC 0D BE 0B 88 13 
   34.070772 5  543       Rx   d 8 AA 19 AC 0D D2 0B 88 13 
   34.078296 2  731       Rx   d 8 04 00 00 00 00 01 00 00 
   34.080894 5  543       Rx   d 8 AA 19 AC 0D E7 0B 88 13 
   34.091401 5  543       Rx   d 8 AA 19 AC 0D FB 0B 88 13 
   34.100768 5  543       Rx   d 8 AA 19 AC 0D 0F 0C 88 13 
   34.110768 5  543       Rx   d 8 AB 19 AC 0D 23 0C 88 13 
   34.120767 5  543       Rx   d 8 AB 19 AC 0D 37 0C 88 13 
   34.128139 4  611       Rx   d 8 A3 19 00 00 7C 02 E8 03 
   34.130766 5  543       Rx   d 8 AA 19 AC 0D 4B 0C 88 13 
   34.140769 5  543       Rx   d 8 AB 19 AC 0D 60 0C 88 13 
   34.150769 5  543       Rx   d 8 AA 19 AC 0D 74 0C 88 13 
   34.160766 5  543       Rx   d 8 AA 19 AC 0D 88 0C 88 13 
   34.170768 5  543       Rx   d 8 AA 19 AC 0D 9C 0C 88 13 
   34.178296 2  731       Rx   d 8 04 00 00 00 00 01 00 00 
   34.180902 5  543       Rx   d 8 AB 19 AC 0D B1 0C 88 13 
   34.191394 5  543       Rx   d 8 AA 19 AC 0D C5 0C 88 13 
   34.200765 5  543       Rx   d 8 AA 19 AC 0D D9 0C 88 13 
   34.210767 5  543       Rx   d 8 AA 19 AC 0D ED 0C 88 13 
   34.220765 5  543       Rx   d 8 AA 19 AC 0D 01 0D 88 13 
   34.230026 4  611       Rx   d 8 A3 19 00 00 7C 02 E8 03 
   34.230765 5  543       Rx   d 8 AA 19 AC 0D 15 0D 88 13 
   34.240763 5  543       Rx   d 8 AA 19 AC 0D 29 0D 88 13 
   34.250764 5  543       Rx   d 8 AA 19 AC 0D 3E 0D 88 13 
   34.260763 5  543       Rx   d 8 AA 19 AC 0D 52 0D 88 13 
   34.270765 5  543       Rx   d 8 AA 19 AC 0D 66 0D 88 13 
   34.278302 2  731       Rx   d 8 04 00 00 00 00 01 00 00 
   34.280903 5  543       Rx   d 8 AA 19 AC 0D 7A 0D 88 13 
   34.291390 5  543       Rx   d 8 AA 19 AC 0D 8F 0D 88 13 
   34.300761 5  543       Rx   d 8 AA 19 AC 0D A3 0D 88 13 
   34.310763 5  543       Rx   d 8 AA 19 AC 0D B7 0D 88 13 
   34.320759 5  543       Rx   d 8 AA 19 AC 0D CB 0D 88 13 
   34.330177 4  611       Rx   d 8 A3 19 00 00 7C 02 E8 03 
   34.330763 5  543       Rx   d 8 AB 19 AC 0D DF 0D 88 13 
   34.340763 5  543       Rx   d 8 AB 19 AC 0D F3 0D 88 13 
   34.350764 5  543       Rx   d 8 AA 19 AC 0D 07 0E 88 13 
   34.360757 5  543       Rx   d 8 AB 19 AC 0D 1B 0E 88 13 
   34.370759 5  543       Rx   d 8 AA 19 AC 0D 2F 0E 88 13 
   34.378304 2  731       Rx   d 8 04 00 00 00 00 01 00 00 
   34.380903 5  543       Rx   d 8 AA 19 AC 0D 43 0E 88 13 
   34.390760 5  543       Rx   d 8 AA 19 AC 0D 58 0E 88 13 
   34.400759 5  543       Rx   d 8 AA 19 AC 0D 6C 0E 88 13 
   34.410759 5  543       Rx   d 8 AB 19 AC 0D 7F 0E 88 13 
   34.420758 5  543       Rx   d 8 AA 19 AC 0D 8E 0E 88 13 
   34.430335 4  611       Rx   d 8 A3 19 00 00 7C 02 E8 03 
   34.430755 5  543       Rx   d 8 AA 19 AC 0D 98 0E 88 13 
   34.440755 5  543       Rx   d 8 AA 19 AC 0D A0 0E 88 13 
   34.450756 5  543       Rx   d 8 AA 19 AC 0D A6 0E 88 13 
   34.460759 5  543       Rx   d 8 AB 19 AC 0D AA 0E 88 13 
   34.470753 5  543       Rx   d 8 AB 19 AC 0D AD 0E 88 13 
   34.478311 2  731       Rx   d 8 04 00 00 00 00 01 00 00 
   34.480904 5  543       Rx   d 8 AB 19 AC 0D AF 0E 88 13 
   34.491386 5  543       Rx   d 8 AA 19 AC 0D B0 0E 88 13 
   34.500751 5  543       Rx   d 8 AA 19 AC 0D B1 0E 88 13 
   34.510753 5  543       Rx   d 8 AA 19 AC 0D B2 0E 88 13 
   34.520752 5  543       Rx   d 8 AB 19 AC 0D B3 0E 88 13 
   34.530751 5  543       Rx   d 8 AB 19 AC 0D B3 0E 88 13 
   34.531035 4  611       Rx   d 8 A3 19 00 00 7C 02 E8 03 
   34.540752 5  543       Rx   d 8 AA 19 AC 0D B4 0E 88 13 
   34.550754 5  543       Rx   d 8 AB 19 AC 0D B4 0E 88 13 
   34.560753 5  543       Rx   d 8 AB 19 AC 0D B4 0E 88 13 
   34.570753 5  543       Rx   d 8 AB 19 AC 0D B4 0E 88 13 
   34.578311 2  731       Rx   d 8 04 00 00 00 00 01 00 00 
   34.580909 5  543       Rx   d 8 AB 19 AC 0D B5 0E 88 13 
   34.591380 5  543       Rx   d 8 AB 19 AC 0D B5 0E 88 13 
   34.600747 5  543       Rx   d 8 AA 19 AC 0D B5 0E 88 13 
   34.610747 5  543       Rx   d 8 AA 19 AC 0D B5 0E 88 13 
   34.620746 5  543       Rx   d 8 AA 19 AC 0D B5 0E 88 13 
   34.630746 5  543       Rx   d 8 AA 19 AC 0D B5 0E 88 13 
   34.631761 4  611       Rx   d 8 A3 19 00 00 7C 02 E8 03 
   34.640746 5  543       Rx   d 8 AA 19 AC 0D B5 0E 88 13 
   34.650745 5  543       Rx   d 8 AA 19 AC 0D B5 0E 88 13 
   34.660746 5  543       Rx   d 8 AA 19 AC 0D B5 0E 88 13 
   34.670746 5  543       Rx   d 8 AA 19 AC 0D B5 0E 88 13 
   34.678318 2  731       Rx   d 8 04 00 00 00 00 01 00 00 
   34.680895 5  543       Rx   d 8 AA 19 AC 0D B5 0E 88 13 
   34.691374 5  543       Rx   d 8 AA 19 AC 0D B5 0E 88 13 
   34.700743 5  543       Rx   d 8 AA 19 AC 0D B5 0E 88 13 
   34.710743 5  543       Rx   d 8 AA 19 AC 0D B5 0E 88 13 
   34.720744 5  543       Rx   d 8 AA 19 AC 0D B5 0E 88 13 
   34.730741 5  543       Rx   d 8 AA 19 AC 0D B5 0E 88 13 
   34.732479 4  611       Rx   d 8 A3 19 00 00 7C 02 E8 03 
   34.740742 5  543       Rx   d 8 AA 19 AC 0D B5 0E 88 13 
   34.750744 5  543       Rx   d 8 AA 19 AC 0D B6 0E 88 13 
   34.760743 5  543       Rx   d 8 AA 19 AC 0D B6 0E 88 13 
   34.770741 5  543       Rx   d 8 AA 19 AC 0D B5 0E 88 13 
   34.778320 2  731       Rx   d 8 04 00 00 00 00 01 00 00 
   34.780913 5  543       Rx   d 8 AA 19 AC 0D B5 0E 88 13 
   34.791370 5  543       Rx   d 8 AA 19 AC 0D B5 0E 88 13 
   34.800739 5  543       Rx   d 8 AA 19 AC 0D B5 0E 88 13 
   34.810739 5  543       Rx   d 8 AA 19 AC 0D B5 0E 88 13 
   34.820740 5  543       Rx   d 8 AA 19 AC 0D B5 0E 88 13 
   34.830738 5  543       Rx   d 8 AA 19 AC 0D B5 0E 88 13 
   34.833202 4  611       Rx   d 8 A3 19 00 00 7C 02 E8 03 
   34.840738 5  543       Rx   d 8 AA 19 AC 0D B5 0E 88 13 
   34.850737 5  543       Rx   d 8 AA 19 AC 0D B5 0E 88 13 
   34.860736 5  543       Rx   d 8 AA 19 AC 0D B5 0E 88 13 
   34.870736 5  543       Rx   d 8 AA 19 AC 0D B5 0E 88 13 
   34.878324 2  731       Rx   d 8 04 00 00 00 00 01 00 00 
   34.880916 5  543       Rx   d 8 AA 19 AC 0D B5 0E 88 13 
   34.891367 5  543       Rx   d 8 AA 19 AC 0D B5 0E 88 13 
   34.900740 5  543       Rx   d 8 AB 19 AC 0D B5 0E 88 13 
   34.910736 5  543       Rx   d 8 AA 19 AC 0D B5 0E 88 13 
   34.920738 5  543       Rx   d 8 AB 19 AC 0D B5 0E 88 13 
   34.930736 5  543       Rx   d 8 AA 19 AC 0D B5 0E 88 13 
   34.933926 4  611       Rx   d 8 A3 19 00 00 7C 02 E8 03 
   34.940736 5  543       Rx   d 8 AA 19 AC 0D B5 0E 88 13 
   34.950735 5  543       Rx   d 8 AA 19 AC 0D B5 0E 88 13 
   34.960736 5  543       Rx   d 8 AA 19 AC 0D B5 0E 88 13 
   34.970734 5  543       Rx   d 8 AA 19 AC 0D B5 0E 88 13 
   34.978325 2  731       Rx   d 8 04 00 00 00 00 01 00 00 
   34.980743 5  543       Rx   d 8 AA 19 AC 0D B5 0E 88 13 
   34.991364 5  543       Rx   d 8 AA 19 AC 0D B5 0E 88 13 
   35.000733 5  543       Rx   d 8 AA 19 AC 0D B5 0E 88 13 
   35.010733 5  543       Rx   d 8 AA 19 AC 0D B5 0E 88 13 
   35.020734 5  543       Rx   d 8 AA 19 AC 0D B5 0E 88 13 
   35.030731 5  543       Rx   d 8 AA 19 AC 0D B5 0E 88 13 
   35.034756 4  611       Rx   d 8 A3 19 00 00 7C 02 E8 03 
   35.040732 5  543       Rx   d 8 AA 19 AC 0D B5 0E 88 13 
   35.050734 5  543       Rx   d 8 AA 19 AC 0D B6 0E 88 13 
   35.060731 5  543       Rx   d 8 AA 19 AC 0D B5 0E 88 13 
   35.070733 5  543       Rx   d 8 AB 19 AC 0D B5 0E 88 13 
   35.078327 2  731       Rx   d 8 05 00 00 00 00 01 00 00 
   35.080733 5  543       Rx   d 8 AA 19 AC 0D B6 0E 88 13 
   35.091362 5  543       Rx   d 8 AA 19 AC 0D B6 0E 88 13 
   35.100731 5  543       Rx   d 8 AB 19 AC 0D B5 0E 88 13 
   35.110731 5  543       Rx   d 8 AB 19 AC 0D B5 0E 88 13 
   35.120728 5  543       Rx   d 8 AA 19 AC 0D B5 0E 88 13 
   35.130728 5  543       Rx   d 8 AA 19 AC 0D B5 0E 88 13 
   35.135373 4  611       Rx   d 8 A3 19 00 00 7C 02 E8 03 
   35.140728 5  543       Rx   d 8 AA 19 AC 0D B5 0E 88 13 
   35.150728 5  543       Rx   d 8 AA 19 AC 0D B5 0E 88 13 
   35.160727 5  543       Rx   d 8 AA 19 AC 0D B5 0E 88 13 
   35.170727 5  543       Rx   d 8 AA 19 AC 0D B5 0E 88 13 
   35.178329 2  731       Rx   d 8 05 00 00 00 00 01 00 00 
   35.180738 5  543       Rx   d 8 AB 19 AC 0D B5 0E 88 13 
   35.191357 5  543       Rx   d 8 AA 19 AC 0D B5 0E 88 13 
   35.200727 5  543       Rx   d 8 AB 19 AC 0D B5 0E 88 13 
   35.210726 5  543       Rx   d 8 AA 19 AC 0D B5 0E 88 13 
   35.220728 5  543       Rx   d 8 AB 19 AC 0D B5 0E 88 13 
   35.230726 5  543       Rx   d 8 AB 19 AC 0D B5 0E 88 13 
   35.236102 4  611       Rx   d 8 A3 19 00 00 7C 02 E8 03 
   35.240724 5  543       Rx   d 8 AA 19 AC 0D B5 0E 88 13 
   35.250723 5  543       Rx   d 8 AA 19 AC 0D B5 0E 88 13 
   35.260724 5  543       Rx   d 8 AA 19 AC 0D B5 0E 88 13 
   35.270724 5  543       Rx   d 8 AA 19 AC 0D B5 0E 88 13 
   35.278335 2  731       Rx   d 8 05 00 00 00 00 01 00 00 
   35.280914 5  543       Rx   d 8 AA 19 AC 0D B5 0E 88 13 
   35.291353 5  543       Rx   d 8 AA 19 AC 0D B5 0E 88 13 
   35.300722 5  543       Rx   d 8 AA 19 AC 0D B5 0E 88 13 
   35.310724 5  543       Rx   d 8 AA 19 AC 0D B6 0E 88 13 
   35.320723 5  543       Rx   d 8 AA 19 AC 0D B6 0E 88 13 
   35.330723 5  543       Rx   d 8 AB 19 AC 0D B5 0E 88 13 
   35.336823 4  611       Rx   d 8 A3 19 00 00 7C 02 E8 03 
   35.340723 5  543       Rx   d 8 AB 19 AC 0D B6 0E 88 13 
   35.350720 5  543       Rx   d 8 AA 19 AC 0D B5 0E 88 13 
   35.360721 5  543       Rx   d 8 AB 19 AC 0D B5 0E 88 13 
   35.370721 5  543       Rx   d 8 AB 19 AC 0D B5 0E 88 13 
   35.378336 2  731       Rx   d 8 05 00 00 00 00 01 00 00 
   35.380740 5  543       Rx   d 8 AA 19 AC 0D B5 0E 88 13 
   35.391348 5  543       Rx   d 8 AA 19 AC 0D B5 0E 88 13 
   35.400719 5  543       Rx   d 8 AB 19 AC 0D B5 0E 88 13 
   35.410719 5  543       Rx   d 8 AB 19 AC 0D B5 0E 88 13 
   35.420717 5  543       Rx   d 8 AA 19 AC 0D B5 0E 88 13 
   35.430717 5  543       Rx   d 8 AB 19 AC 0D B5 0E 88 13 
   35.437538 4  611       Rx   d 8 A3 19 00 00 7C 02 E8 03 
   35.440719 5  543       Rx   d 8 AB 19 AC 0D B5 0E 88 13 
   35.450718 5  543       Rx   d 8 AB 19 AC 0D B5 0E 88 13 
   35.460715 5  543       Rx   d 8 AA 19 AC 0D B5 0E 88 13 
   35.470717 5  543       Rx   d 8 AB 19 AC 0D B5 0E 88 13 
   35.478342 2  731       Rx   d 8 05 00 00 00 00 01 00 00 
   35.480734 5  543       Rx   d 8 AA 19 AC 0D B5 0E 88 13 
   35.491346 5  543       Rx   d 8 AB 19 AC 0D B5 0E 88 13 
   35.500714 5  543       Rx   d 8 AB 19 AC 0D B5 0E 88 13 
   35.510714 5  543       Rx   d 8 AB 19 AC 0D B5 0E 88 13 
   35.520711 5  543       Rx   d 8 AA 19 AC 0D B5 0E 88 13 
   35.530713 5  543       Rx   d 8 AB 19 AC 0D B5 0E 88 13 
   35.538255 4  611       Rx   d 8 A3 19 00 00 7C 02 E8 03 
   35.540711 5  543       Rx   d 8 AA 19 AC 0D B5 0E 88 13 
   35.550712 5  543       Rx   d 8 AB 19 AC 0D B5 0E 88 13 
   35.560713 5  543       Rx   d 8 AB 19 AC 0D B5 0E 88 13 
   35.570711 5  543       Rx   d 8 AB 19 AC 0D B5 0E 88 13 
   35.578345 2  731       Rx   d 8 05 00 00 00 00 01 00 00 
   35.580748 5  543       Rx   d 8 AA 19 AC 0D B5 0E 88 13 
   35.591340 5  543       Rx   d 8 AA 19 AC 0D B5 0E 88 13 
   35.600711 5  543       Rx   d 8 AA 19 AC 0D B6 0E 88 13 
   35.610709 5  543       Rx   d 8 AA 19 AC 0D B5 0E 88 13 
   35.620708 5  543       Rx   d 8 AA 19 AC 0D B5 0E 88 13 
   35.630710 5  543       Rx   d 8 AB 19 AC 0D B5 0E 88 13 
   35.638973 4  611       Rx   d 8 A3 19 00 00 7C 02 E8 03 
   35.640710 5  543       Rx   d 8 AB 19 AC 0D B5 0E 88 13 
   35.650709 5  543       Rx   d 8 AB 19 AC 0D B5 0E 88 13 
   35.660708 5  543       Rx   d 8 AB 19 AC 0D B5 0E 88 13 
   35.670708 5  543       Rx   d 8 AB 19 AC 0D B5 0E 88 13 
   35.678349 2  731       Rx   d 8 05 00 00 00 00 01 00 00 
   35.680751 5  543       Rx   d 8 AB 19 AC 0D B5 0E 88 13 
   35.691338 5  543       Rx   d 8 AB 19 AC 0D B5 0E 88 13 
   35.700707 5  543       Rx   d 8 AB 19 AC 0D B5 0E 88 13 
   35.710707 5  543       Rx   d 8 AB 19 AC 0D B5 0E 88 13 
   35.720706 5  543       Rx   d 8 AB 19 AC 0D B5 0E 88 13 
   35.730705 5  543       Rx   d 8 AB 19 AC 0D B5 0E 88 13 
   35.739692 4  611       Rx   d 8 A3 19 00 00 7C 02 E8 03 
   35.740706 5  543       Rx   d 8 AB 19 AC 0D B5 0E 88 13 
   35.750704 5  543       Rx   d 8 AB 19 AC 0D B5 0E 88 13 
   35.760705 5  543       Rx   d 8 AB 19 AC 0D B5 0E 88 13 
   35.770703 5  543       Rx   d 8 AB 19 AC 0D B5 0E 88 13 
   35.778351 2  731       Rx   d 8 05 00 00 00 00 01 00 00 
   35.780733 5  543       Rx   d 8 AB 19 AC 0D B5 0E 88 13 
   35.791333 5  543       Rx   d 8 AB 19 AC 0D B5 0E 88 13 
   35.800704 5  543       Rx   d 8 AB 19 AC 0D B5 0E 88 13 
   35.810702 5  543       Rx   d 8 AA 19 AC 0D B5 0E 88 13 
   35.820700 5  543       Rx   d 8 AA 19 AC 0D B5 0E 88 13 
   35.830700 5  543       Rx   d 8 AA 19 AC 0D B5 0E 88 13 
   35.840412 4  611       Rx   d 8 A3 19 00 00 7C 02 E8 03 
   35.840702 5  543       Rx   d 8 AB 19 AC 0D B5 0E 88 13 
   35.850699 5  543       Rx   d 8 AA 19 AC 0D B5 0E 88 13 
   35.860700 5  543       Rx   d 8 AA 19 AC 0D B5 0E 88 13 
   35.870698 5  543       Rx   d 8 AA 19 AC 0D B5 0E 88 13 
   35.878356 2  731       Rx   d 8 05 00 00 00 00 01 00 00 
   35.880747 5  543       Rx   d 8 AA 19 AC 0D B5 0E 88 13 
   35.891329 5  543       Rx   d 8 AA 19 AC 0D B5 0E 88 13 
   35.900698 5  543       Rx   d 8 AA 19 AC 0D B5 0E 88 13 
   35.910698 5  543       Rx   d 8 AB 19 AC 0D B5 0E 88 13 
   35.920699 5  543       Rx   d 8 AB 19 AC 0D B5 0E 88 13 
   35.930696 5  543       Rx   d 8 AA 19 AC 0D B5 0E 88 13 
   35.940695 5  543       Rx   d 8 AA 19 AC 0D B5 0E 88 13 
   35.941127 4  611       Rx   d 8 A3 19 00 00 7C 02 E8 03 
   35.950696 5  543       Rx   d 8 AA 19 AC 0D B5 0E 88 13 
   35.960695 5  543       Rx   d 8 AA 19 AC 0D B5 0E 88 13 
   35.970695 5  543       Rx   d 8 AA 19 AC 0D B5 0E 88 13 
   35.978358 2  731       Rx   d 8 05 00 00 00 00 01 00 00 
   35.980754 5  543       Rx   d 8 AA 19 AC 0D B5 0E 88 13 
   35.991323 5  543       Rx   d 8 AA 19 AC 0D B5 0E 88 13 
   36.000694 5  543       Rx   d 8 AA 19 AC 0D B5 0E 88 13 
   36.010692 5  543       Rx   d 8 AA 19 AC 0D B5 0E 88 13 
   36.020693 5  543       Rx   d 8 AA 19 AC 0D B5 0E 88 13 
   36.030693 5  543       Rx   d 8 AA 19 AC 0D B5 0E 88 13 
   36.040692 5  543       Rx   d 8 AA 19 AC 0D B5 0E 88 13 
   36.042636 4  611       Rx   d 8 A3 19 00 00 7C 02 E8 03 
   36.050693 5  543       Rx   d 8 AA 19 AC 0D B5 0E 88 13 
   36.060692 5  543       Rx   d 8 AA 19 AC 0D B5 0E 88 13 
   36.070692 5  543       Rx   d 8 AA 19 AC 0D B5 0E 88 13 
   36.078364 2  731       Rx   d 8 05 00 00 00 00 01 00 00 
   36.080751 5  543       Rx   d 8 AA 19 AC 0D B5 0E 88 13 
   36.091321 5  543       Rx   d 8 AA 19 AC 0D B5 0E 88 13 
   36.100690 5  543       Rx   d 8 AA 19 AC 0D B5 0E 88 13 
   36.110690 5  543       Rx   d 8 AA 19 AC 0D B5 0E 88 13 
   36.120691 5  543       Rx   d 8 AA 19 AC 0D B5 0E 88 13 
   36.130689 5  543       Rx   d 8 AA 19 AC 0D B5 0E 88 13 
   36.140692 5  543       Rx   d 8 AB 19 AC 0D B6 0E 88 13 
   36.142789 4  611       Rx   d 8 A3 19 00 00 7C 02 E8 03 
   36.150689 5  543       Rx   d 8 AA 19 AC 0D B5 0E 88 13 
   36.160688 5  543       Rx   d 8 AA 19 AC 0D B5 0E 88 13 
   36.170690 5  543       Rx   d 8 AB 19 AC 0D B5 0E 88 13 
   36.178364 2  731       Rx   d 8 05 00 00 00 00 01 00 00 
   36.180759 5  543       Rx   d 8 AA 19 AC 0D B5 0E 88 13 
   36.190689 5  543       Rx   d 8 AB 19 AC 0D B5 0E 88 13 
   36.200688 5  543       Rx   d 8 AB 19 AC 0D B5 0E 88 13 
   36.210688 5  543       Rx   d 8 AB 19 AC 0D B5 0E 88 13 
   36.220687 5  543       Rx   d 8 AA 19 AC 0D B5 0E 88 13 
   36.230686 5  543       Rx   d 8 AA 19 AC 0D B5 0E 88 13 
   36.240685 5  543       Rx   d 8 AA 19 AC 0D B5 0E 88 13 
   36.243267 4  611       Rx   d 8 A3 19 00 00 7C 02 E8 03 
   36.250684 5  543       Rx   d 8 AA 19 AC 0D B5 0E 88 13 
   36.260684 5  543       Rx   d 8 AA 19 AC 0D B5 0E 88 13 
   36.270684 5  543       Rx   d 8 AA 19 AC 0D B5 0E 88 13 
   36.278371 2  731       Rx   d 8 05 00 00 00 00 01 00 00 
   36.280743 5  543       Rx   d 8 AA 19 AC 0D B5 0E 88 13 
